CITIFILE A.01.01
#Momentum: B.09.00.103 (*) 370.600 Mar  9 2011 
#Momentum Date and Time: Wed Oct 10 15:10:48 2012

NAME Momentum.SP

#  mode: MW    project: proj    reference: S_50

CONSTANT NBR_OF_PORTS 2

CONSTANT NORMALIZATION 53.57159354

VAR freq MAG 50

DATA S[1,1] RI
DATA S[1,2] RI
DATA S[2,1] RI
DATA S[2,2] RI
DATA S_50[1,1] RI
DATA S_50[1,2] RI
DATA S_50[2,1] RI
DATA S_50[2,2] RI
DATA S_Z0[1,1] RI
DATA S_Z0[1,2] RI
DATA S_Z0[2,1] RI
DATA S_Z0[2,2] RI
DATA Z0[1] RI
DATA Z0[2] RI
DATA PORTZ[1] RI
DATA PORTZ[2] RI

VAR_LIST_BEGIN
	 100000000
	 583333333.5
	 1066666667
	 1550000000
	 2033333333
	 2275000000
	 2335416667
	 2395833334
	 2410937501
	 2418489585
	 2422265627
	 2424153648
	 2426041668
	 2427929689
	 2429817710
	 2430761721
	 2431705731
	 2432649742
	 2433593752
	 2434537763
	 2435009768
	 2435481773
	 2435953779
	 2436425784
	 2436897789
	 2437369794
	 2437841800
	 2438313805
	 2438785810
	 2439257815
	 2439729820
	 2440201825
	 2441145835
	 2442089846
	 2443033856
	 2443977867
	 2444921877
	 2445865888
	 2446809898
	 2448697918
	 2450585939
	 2452473960
	 2456250001
	 2463802085
	 2471354168
	 2486458334
	 2516666667
	 2677777778
	 2838888889
	 3000000000
VAR_LIST_END

BEGIN
	 0.0680367262,	 0.228643583
	 0.722699626,	 0.313612164
	 0.912729164,	 0.0227848267
	 1.002517123512539 ,	 -0.29797817142434185 
	 0.966907065,	-0.798471787
	 1.0072537319050174 ,	 -1.948178768418749 
	 0.970458141,	-3.03352012
	 0.272983048,	-7.07577057
	-1.10871361,	-10.5710015
	-3.20676326,	-13.8062893
	-5.34100506,	-16.0649098
	-6.94541329,	-17.3593051
	-9.10150195,	-18.7073767
	-12.0209191,	-19.974165
	-15.9548403,	-20.8582872
	-18.3700284,	-20.9856949
	-21.0916833,	-20.7630853
	-24.082516,	-20.0531761
	-27.2456393,	-18.7046412
	-30.4042605,	-16.5800555
	-31.9028252,	-15.198927
	-33.2961567,	-13.6031347
	-34.5426232,	-11.8021702
	-35.6010937,	-9.81580453
	-36.4341107,	-7.67428866
	-37.0111004,	-5.41739913
	-37.3112969,	-3.09230831
	-37.3257849,	-0.750458395
	-37.058288,	 1.55620161
	-36.5246436,	 3.77895537
	-35.7508796,	 5.87553579
	-34.7708942,	 7.81256759
	-32.345696,	 11.1235359
	-29.5561288,	 13.6371435
	-26.664295,	 15.3983089
	-23.8562811,	 16.5191382
	-21.2432348,	 17.1333359
	-18.8779798,	 17.3679992
	-16.7743371,	 17.3301707
	-13.3040139,	 16.7535298
	-10.6593725,	 15.8495059
	-8.64287736,	 14.8479048
	-5.88088804,	 12.9278129
	-3.02168419,	 9.96782579
	-1.67434,	 7.99102718
	-0.486761815,	 5.63653954
	 0.276507762,	 3.46945711
	 0.817592009,	 0.970691548
	 0.893273339,	 0.423493395
	 0.926856573,	 0.146598589
END
BEGIN
	 0.931986096,	-0.260402731
	 0.280694486,	-0.505493858
	 0.101101824,	-0.413786402
	 0.0337486655,	-0.414600096
	 0.124501971,	-0.805003251
	 0.130322467,	-1.87987205
	 0.0879879511,	-2.94612605
	-0.614433774,	-6.96927982
	-1.99729483,	-10.4597333
	-4.09591738,	-13.6926315
	-6.23044342,	-15.9500569
	-7.83499316,	-17.2438546
	-9.99122302,	-18.5913285
	-12.9107809,	-19.857519
	-16.8448425,	-20.7410436
	-19.2601006,	-20.8681523
	-21.9818255,	-20.6452437
	-24.972728,	-19.9350356
	-28.1359212,	-18.5862019
	-31.2946118,	-16.4613172
	-32.7932113,	-15.0800394
	-34.1865775,	-13.4840976
	-35.4330787,	-11.6829838
	-36.4915839,	-9.69646858
	-37.3246356,	-7.55480346
	-37.90166,	-5.29776456
	-38.2018911,	-2.97252424
	-38.2164139,	-0.630525088
	-37.9489516,	 1.67628438
	-37.4153418,	 3.8991874
	-36.6416125,	 5.99591717
	-35.6616616,	 7.93309843
	-33.2365328,	 11.2443654
	-30.4470348,	 13.7582719
	-27.55527,	 15.5197361
	-24.7473253,	 16.6408642
	-22.1343479,	 17.2553609
	-19.7691618,	 17.4903232
	-17.6655879,	 17.4527936
	-14.1954022,	 16.8767508
	-11.5508979,	 15.9733251
	-9.53453959,	 14.9723222
	-6.77282278,	 13.0534269
	-3.91416045,	 10.095834
	-2.56735311,	 8.12143064
	-1.38083581,	 5.77173695
	-0.61964221,	 3.61425884
	-0.0889876192,	 1.16734255
	-0.0235152122,	 0.673910472
	-0.000842903923,	 0.454138171
END
BEGIN
	 0.931986096,	-0.260402731
	 0.280694486,	-0.505493858
	 0.101101824,	-0.413786402
	 0.0337486655,	-0.414600096
	 0.124501971,	-0.805003251
	 0.130322467,	-1.87987205
	 0.0879879511,	-2.94612605
	-0.614433774,	-6.96927982
	-1.99729483,	-10.4597333
	-4.09591738,	-13.6926315
	-6.23044342,	-15.9500569
	-7.83499316,	-17.2438546
	-9.99122302,	-18.5913285
	-12.9107809,	-19.857519
	-16.8448425,	-20.7410436
	-19.2601006,	-20.8681523
	-21.9818255,	-20.6452437
	-24.972728,	-19.9350356
	-28.1359212,	-18.5862019
	-31.2946118,	-16.4613172
	-32.7932113,	-15.0800394
	-34.1865775,	-13.4840976
	-35.4330787,	-11.6829838
	-36.4915839,	-9.69646858
	-37.3246356,	-7.55480346
	-37.90166,	-5.29776456
	-38.2018911,	-2.97252424
	-38.2164139,	-0.630525088
	-37.9489516,	 1.67628438
	-37.4153418,	 3.8991874
	-36.6416125,	 5.99591717
	-35.6616616,	 7.93309843
	-33.2365328,	 11.2443654
	-30.4470348,	 13.7582719
	-27.55527,	 15.5197361
	-24.7473253,	 16.6408642
	-22.1343479,	 17.2553609
	-19.7691618,	 17.4903232
	-17.6655879,	 17.4527936
	-14.1954022,	 16.8767508
	-11.5508979,	 15.9733251
	-9.53453959,	 14.9723222
	-6.77282278,	 13.0534269
	-3.91416045,	 10.095834
	-2.56735311,	 8.12143064
	-1.38083581,	 5.77173695
	-0.61964221,	 3.61425884
	-0.0889876192,	 1.16734255
	-0.0235152122,	 0.673910472
	-0.000842903923,	 0.454138171
END
BEGIN
	 0.0680367261,	 0.228643583
	 0.722699625,	 0.313612164
	 0.91272916,	 0.0227848229
	 1.0025171139808675 ,	 -0.29797821905460942 
	 0.966906978,	-0.798471727
	 1.0072535946232084 ,	 -1.9481786272662192 
	 0.970457952,	-3.03351989
	 0.272982679,	-7.07576992
	-1.108714,	-10.5710005
	-3.20676364,	-13.8062879
	-5.34100543,	-16.064908
	-6.94541351,	-17.3593032
	-9.10150211,	-18.7073745
	-12.020919,	-19.9741625
	-15.9548399,	-20.8582846
	-18.3700278,	-20.9856921
	-21.0916825,	-20.7630821
	-24.0825149,	-20.0531729
	-27.2456382,	-18.7046381
	-30.4042586,	-16.5800522
	-31.9028231,	-15.198924
	-33.2961543,	-13.6031315
	-34.5426207,	-11.8021674
	-35.6010909,	-9.81580156
	-36.4341078,	-7.67428611
	-37.0110974,	-5.41739675
	-37.3112936,	-3.09230586
	-37.3257817,	-0.750456408
	-37.0582845,	 1.5562036
	-36.5246401,	 3.77895692
	-35.750876,	 5.87553709
	-34.7708905,	 7.81256884
	-32.3456926,	 11.1235366
	-29.5561255,	 13.6371439
	-26.6642915,	 15.398309
	-23.8562781,	 16.519138
	-21.2432319,	 17.1333355
	-18.877977,	 17.3679987
	-16.7743345,	 17.33017
	-13.3040116,	 16.753529
	-10.6593705,	 15.8495051
	-8.64287576,	 14.8479039
	-5.88088669,	 12.927812
	-3.02168336,	 9.96782508
	-1.67433938,	 7.99102654
	-0.486761432,	 5.63653908
	 0.276507968,	 3.46945679
	 0.817592037,	 0.970691406
	 0.893273338,	 0.423493271
	 0.926856548,	 0.146598456
END
BEGIN
	 0.0680367262,	 0.228643583
	 0.722699626,	 0.313612164
	 0.912729164,	 0.0227848267
	 1.002517123512539 ,	 -0.29797817142434185 
	 0.966907065,	-0.798471787
	 1.0072537319050174 ,	 -1.948178768418749 
	 0.970458141,	-3.03352012
	 0.272983048,	-7.07577057
	-1.10871361,	-10.5710015
	-3.20676326,	-13.8062893
	-5.34100506,	-16.0649098
	-6.94541329,	-17.3593051
	-9.10150195,	-18.7073767
	-12.0209191,	-19.974165
	-15.9548403,	-20.8582872
	-18.3700284,	-20.9856949
	-21.0916833,	-20.7630853
	-24.082516,	-20.0531761
	-27.2456393,	-18.7046412
	-30.4042605,	-16.5800555
	-31.9028252,	-15.198927
	-33.2961567,	-13.6031347
	-34.5426232,	-11.8021702
	-35.6010937,	-9.81580453
	-36.4341107,	-7.67428866
	-37.0111004,	-5.41739913
	-37.3112969,	-3.09230831
	-37.3257849,	-0.750458395
	-37.058288,	 1.55620161
	-36.5246436,	 3.77895537
	-35.7508796,	 5.87553579
	-34.7708942,	 7.81256759
	-32.345696,	 11.1235359
	-29.5561288,	 13.6371435
	-26.664295,	 15.3983089
	-23.8562811,	 16.5191382
	-21.2432348,	 17.1333359
	-18.8779798,	 17.3679992
	-16.7743371,	 17.3301707
	-13.3040139,	 16.7535298
	-10.6593725,	 15.8495059
	-8.64287736,	 14.8479048
	-5.88088804,	 12.9278129
	-3.02168419,	 9.96782579
	-1.67434,	 7.99102718
	-0.486761815,	 5.63653954
	 0.276507762,	 3.46945711
	 0.817592009,	 0.970691548
	 0.893273339,	 0.423493395
	 0.926856573,	 0.146598589
END
BEGIN
	 0.931986096,	-0.260402731
	 0.280694486,	-0.505493858
	 0.101101824,	-0.413786402
	 0.0337486655,	-0.414600096
	 0.124501971,	-0.805003251
	 0.130322467,	-1.87987205
	 0.0879879511,	-2.94612605
	-0.614433774,	-6.96927982
	-1.99729483,	-10.4597333
	-4.09591738,	-13.6926315
	-6.23044342,	-15.9500569
	-7.83499316,	-17.2438546
	-9.99122302,	-18.5913285
	-12.9107809,	-19.857519
	-16.8448425,	-20.7410436
	-19.2601006,	-20.8681523
	-21.9818255,	-20.6452437
	-24.972728,	-19.9350356
	-28.1359212,	-18.5862019
	-31.2946118,	-16.4613172
	-32.7932113,	-15.0800394
	-34.1865775,	-13.4840976
	-35.4330787,	-11.6829838
	-36.4915839,	-9.69646858
	-37.3246356,	-7.55480346
	-37.90166,	-5.29776456
	-38.2018911,	-2.97252424
	-38.2164139,	-0.630525088
	-37.9489516,	 1.67628438
	-37.4153418,	 3.8991874
	-36.6416125,	 5.99591717
	-35.6616616,	 7.93309843
	-33.2365328,	 11.2443654
	-30.4470348,	 13.7582719
	-27.55527,	 15.5197361
	-24.7473253,	 16.6408642
	-22.1343479,	 17.2553609
	-19.7691618,	 17.4903232
	-17.6655879,	 17.4527936
	-14.1954022,	 16.8767508
	-11.5508979,	 15.9733251
	-9.53453959,	 14.9723222
	-6.77282278,	 13.0534269
	-3.91416045,	 10.095834
	-2.56735311,	 8.12143064
	-1.38083581,	 5.77173695
	-0.61964221,	 3.61425884
	-0.0889876192,	 1.16734255
	-0.0235152122,	 0.673910472
	-0.000842903923,	 0.454138171
END
BEGIN
	 0.931986096,	-0.260402731
	 0.280694486,	-0.505493858
	 0.101101824,	-0.413786402
	 0.0337486655,	-0.414600096
	 0.124501971,	-0.805003251
	 0.130322467,	-1.87987205
	 0.0879879511,	-2.94612605
	-0.614433774,	-6.96927982
	-1.99729483,	-10.4597333
	-4.09591738,	-13.6926315
	-6.23044342,	-15.9500569
	-7.83499316,	-17.2438546
	-9.99122302,	-18.5913285
	-12.9107809,	-19.857519
	-16.8448425,	-20.7410436
	-19.2601006,	-20.8681523
	-21.9818255,	-20.6452437
	-24.972728,	-19.9350356
	-28.1359212,	-18.5862019
	-31.2946118,	-16.4613172
	-32.7932113,	-15.0800394
	-34.1865775,	-13.4840976
	-35.4330787,	-11.6829838
	-36.4915839,	-9.69646858
	-37.3246356,	-7.55480346
	-37.90166,	-5.29776456
	-38.2018911,	-2.97252424
	-38.2164139,	-0.630525088
	-37.9489516,	 1.67628438
	-37.4153418,	 3.8991874
	-36.6416125,	 5.99591717
	-35.6616616,	 7.93309843
	-33.2365328,	 11.2443654
	-30.4470348,	 13.7582719
	-27.55527,	 15.5197361
	-24.7473253,	 16.6408642
	-22.1343479,	 17.2553609
	-19.7691618,	 17.4903232
	-17.6655879,	 17.4527936
	-14.1954022,	 16.8767508
	-11.5508979,	 15.9733251
	-9.53453959,	 14.9723222
	-6.77282278,	 13.0534269
	-3.91416045,	 10.095834
	-2.56735311,	 8.12143064
	-1.38083581,	 5.77173695
	-0.61964221,	 3.61425884
	-0.0889876192,	 1.16734255
	-0.0235152122,	 0.673910472
	-0.000842903923,	 0.454138171
END
BEGIN
	 0.0680367261,	 0.228643583
	 0.722699625,	 0.313612164
	 0.91272916,	 0.0227848229
	 1.0025171139808675 ,	 -0.29797821905460942 
	 0.966906978,	-0.798471727
	 1.0072535946232084 ,	 -1.9481786272662192 
	 0.970457952,	-3.03351989
	 0.272982679,	-7.07576992
	-1.108714,	-10.5710005
	-3.20676364,	-13.8062879
	-5.34100543,	-16.064908
	-6.94541351,	-17.3593032
	-9.10150211,	-18.7073745
	-12.020919,	-19.9741625
	-15.9548399,	-20.8582846
	-18.3700278,	-20.9856921
	-21.0916825,	-20.7630821
	-24.0825149,	-20.0531729
	-27.2456382,	-18.7046381
	-30.4042586,	-16.5800522
	-31.9028231,	-15.198924
	-33.2961543,	-13.6031315
	-34.5426207,	-11.8021674
	-35.6010909,	-9.81580156
	-36.4341078,	-7.67428611
	-37.0110974,	-5.41739675
	-37.3112936,	-3.09230586
	-37.3257817,	-0.750456408
	-37.0582845,	 1.5562036
	-36.5246401,	 3.77895692
	-35.750876,	 5.87553709
	-34.7708905,	 7.81256884
	-32.3456926,	 11.1235366
	-29.5561255,	 13.6371439
	-26.6642915,	 15.398309
	-23.8562781,	 16.519138
	-21.2432319,	 17.1333355
	-18.877977,	 17.3679987
	-16.7743345,	 17.33017
	-13.3040116,	 16.753529
	-10.6593705,	 15.8495051
	-8.64287576,	 14.8479039
	-5.88088669,	 12.927812
	-3.02168336,	 9.96782508
	-1.67433938,	 7.99102654
	-0.486761432,	 5.63653908
	 0.276507968,	 3.46945679
	 0.817592037,	 0.970691406
	 0.893273338,	 0.423493271
	 0.926856548,	 0.146598456
END
BEGIN
	 0.0680367262,	 0.228643583
	 0.722699626,	 0.313612164
	 0.912729164,	 0.0227848267
	 1.002517123512539 ,	 -0.29797817142434185 
	 0.966907065,	-0.798471787
	 1.0072537319050174 ,	 -1.948178768418749 
	 0.970458141,	-3.03352012
	 0.272983048,	-7.07577057
	-1.10871361,	-10.5710015
	-3.20676326,	-13.8062893
	-5.34100506,	-16.0649098
	-6.94541329,	-17.3593051
	-9.10150195,	-18.7073767
	-12.0209191,	-19.974165
	-15.9548403,	-20.8582872
	-18.3700284,	-20.9856949
	-21.0916833,	-20.7630853
	-24.082516,	-20.0531761
	-27.2456393,	-18.7046412
	-30.4042605,	-16.5800555
	-31.9028252,	-15.198927
	-33.2961567,	-13.6031347
	-34.5426232,	-11.8021702
	-35.6010937,	-9.81580453
	-36.4341107,	-7.67428866
	-37.0111004,	-5.41739913
	-37.3112969,	-3.09230831
	-37.3257849,	-0.750458395
	-37.058288,	 1.55620161
	-36.5246436,	 3.77895537
	-35.7508796,	 5.87553579
	-34.7708942,	 7.81256759
	-32.345696,	 11.1235359
	-29.5561288,	 13.6371435
	-26.664295,	 15.3983089
	-23.8562811,	 16.5191382
	-21.2432348,	 17.1333359
	-18.8779798,	 17.3679992
	-16.7743371,	 17.3301707
	-13.3040139,	 16.7535298
	-10.6593725,	 15.8495059
	-8.64287736,	 14.8479048
	-5.88088804,	 12.9278129
	-3.02168419,	 9.96782579
	-1.67434,	 7.99102718
	-0.486761815,	 5.63653954
	 0.276507762,	 3.46945711
	 0.817592009,	 0.970691548
	 0.893273339,	 0.423493395
	 0.926856573,	 0.146598589
END
BEGIN
	 0.931986096,	-0.260402731
	 0.280694486,	-0.505493858
	 0.101101824,	-0.413786402
	 0.0337486655,	-0.414600096
	 0.124501971,	-0.805003251
	 0.130322467,	-1.87987205
	 0.0879879511,	-2.94612605
	-0.614433774,	-6.96927982
	-1.99729483,	-10.4597333
	-4.09591738,	-13.6926315
	-6.23044342,	-15.9500569
	-7.83499316,	-17.2438546
	-9.99122302,	-18.5913285
	-12.9107809,	-19.857519
	-16.8448425,	-20.7410436
	-19.2601006,	-20.8681523
	-21.9818255,	-20.6452437
	-24.972728,	-19.9350356
	-28.1359212,	-18.5862019
	-31.2946118,	-16.4613172
	-32.7932113,	-15.0800394
	-34.1865775,	-13.4840976
	-35.4330787,	-11.6829838
	-36.4915839,	-9.69646858
	-37.3246356,	-7.55480346
	-37.90166,	-5.29776456
	-38.2018911,	-2.97252424
	-38.2164139,	-0.630525088
	-37.9489516,	 1.67628438
	-37.4153418,	 3.8991874
	-36.6416125,	 5.99591717
	-35.6616616,	 7.93309843
	-33.2365328,	 11.2443654
	-30.4470348,	 13.7582719
	-27.55527,	 15.5197361
	-24.7473253,	 16.6408642
	-22.1343479,	 17.2553609
	-19.7691618,	 17.4903232
	-17.6655879,	 17.4527936
	-14.1954022,	 16.8767508
	-11.5508979,	 15.9733251
	-9.53453959,	 14.9723222
	-6.77282278,	 13.0534269
	-3.91416045,	 10.095834
	-2.56735311,	 8.12143064
	-1.38083581,	 5.77173695
	-0.61964221,	 3.61425884
	-0.0889876192,	 1.16734255
	-0.0235152122,	 0.673910472
	-0.000842903923,	 0.454138171
END
BEGIN
	 0.931986096,	-0.260402731
	 0.280694486,	-0.505493858
	 0.101101824,	-0.413786402
	 0.0337486655,	-0.414600096
	 0.124501971,	-0.805003251
	 0.130322467,	-1.87987205
	 0.0879879511,	-2.94612605
	-0.614433774,	-6.96927982
	-1.99729483,	-10.4597333
	-4.09591738,	-13.6926315
	-6.23044342,	-15.9500569
	-7.83499316,	-17.2438546
	-9.99122302,	-18.5913285
	-12.9107809,	-19.857519
	-16.8448425,	-20.7410436
	-19.2601006,	-20.8681523
	-21.9818255,	-20.6452437
	-24.972728,	-19.9350356
	-28.1359212,	-18.5862019
	-31.2946118,	-16.4613172
	-32.7932113,	-15.0800394
	-34.1865775,	-13.4840976
	-35.4330787,	-11.6829838
	-36.4915839,	-9.69646858
	-37.3246356,	-7.55480346
	-37.90166,	-5.29776456
	-38.2018911,	-2.97252424
	-38.2164139,	-0.630525088
	-37.9489516,	 1.67628438
	-37.4153418,	 3.8991874
	-36.6416125,	 5.99591717
	-35.6616616,	 7.93309843
	-33.2365328,	 11.2443654
	-30.4470348,	 13.7582719
	-27.55527,	 15.5197361
	-24.7473253,	 16.6408642
	-22.1343479,	 17.2553609
	-19.7691618,	 17.4903232
	-17.6655879,	 17.4527936
	-14.1954022,	 16.8767508
	-11.5508979,	 15.9733251
	-9.53453959,	 14.9723222
	-6.77282278,	 13.0534269
	-3.91416045,	 10.095834
	-2.56735311,	 8.12143064
	-1.38083581,	 5.77173695
	-0.61964221,	 3.61425884
	-0.0889876192,	 1.16734255
	-0.0235152122,	 0.673910472
	-0.000842903923,	 0.454138171
END
BEGIN
	 0.0680367261,	 0.228643583
	 0.722699625,	 0.313612164
	 0.91272916,	 0.0227848229
	 1.0025171139808675 ,	 -0.29797821905460942 
	 0.966906978,	-0.798471727
	 1.0072535946232084 ,	 -1.9481786272662192 
	 0.970457952,	-3.03351989
	 0.272982679,	-7.07576992
	-1.108714,	-10.5710005
	-3.20676364,	-13.8062879
	-5.34100543,	-16.064908
	-6.94541351,	-17.3593032
	-9.10150211,	-18.7073745
	-12.020919,	-19.9741625
	-15.9548399,	-20.8582846
	-18.3700278,	-20.9856921
	-21.0916825,	-20.7630821
	-24.0825149,	-20.0531729
	-27.2456382,	-18.7046381
	-30.4042586,	-16.5800522
	-31.9028231,	-15.198924
	-33.2961543,	-13.6031315
	-34.5426207,	-11.8021674
	-35.6010909,	-9.81580156
	-36.4341078,	-7.67428611
	-37.0110974,	-5.41739675
	-37.3112936,	-3.09230586
	-37.3257817,	-0.750456408
	-37.0582845,	 1.5562036
	-36.5246401,	 3.77895692
	-35.750876,	 5.87553709
	-34.7708905,	 7.81256884
	-32.3456926,	 11.1235366
	-29.5561255,	 13.6371439
	-26.6642915,	 15.398309
	-23.8562781,	 16.519138
	-21.2432319,	 17.1333355
	-18.877977,	 17.3679987
	-16.7743345,	 17.33017
	-13.3040116,	 16.753529
	-10.6593705,	 15.8495051
	-8.64287576,	 14.8479039
	-5.88088669,	 12.927812
	-3.02168336,	 9.96782508
	-1.67433938,	 7.99102654
	-0.486761432,	 5.63653908
	 0.276507968,	 3.46945679
	 0.817592037,	 0.970691406
	 0.893273338,	 0.423493271
	 0.926856548,	 0.146598456
END
BEGIN
	 50 ,	 0 
	 50 ,	 0 
	 50 ,	 0 
	 50 ,	 0 
	 50 ,	 0 
	 50 ,	 0 
	 50 ,	 0 
	 50 ,	 0 
	 50 ,	 0 
	 50 ,	 0 
	 50 ,	 0 
	 50 ,	 0 
	 50 ,	 0 
	 50 ,	 0 
	 50 ,	 0 
	 50 ,	 0 
	 50 ,	 0 
	 50 ,	 0 
	 50 ,	 0 
	 50 ,	 0 
	 50 ,	 0 
	 50 ,	 0 
	 50 ,	 0 
	 50 ,	 0 
	 50 ,	 0 
	 50 ,	 0 
	 50 ,	 0 
	 50 ,	 0 
	 50 ,	 0 
	 50 ,	 0 
	 50 ,	 0 
	 50 ,	 0 
	 50 ,	 0 
	 50 ,	 0 
	 50 ,	 0 
	 50 ,	 0 
	 50 ,	 0 
	 50 ,	 0 
	 50 ,	 0 
	 50 ,	 0 
	 50 ,	 0 
	 50 ,	 0 
	 50 ,	 0 
	 50 ,	 0 
	 50 ,	 0 
	 50 ,	 0 
	 50 ,	 0 
	 50 ,	 0 
	 50 ,	 0 
	 50 ,	 0 
END
BEGIN
	 50 ,	 0 
	 50 ,	 0 
	 50 ,	 0 
	 50 ,	 0 
	 50 ,	 0 
	 50 ,	 0 
	 50 ,	 0 
	 50 ,	 0 
	 50 ,	 0 
	 50 ,	 0 
	 50 ,	 0 
	 50 ,	 0 
	 50 ,	 0 
	 50 ,	 0 
	 50 ,	 0 
	 50 ,	 0 
	 50 ,	 0 
	 50 ,	 0 
	 50 ,	 0 
	 50 ,	 0 
	 50 ,	 0 
	 50 ,	 0 
	 50 ,	 0 
	 50 ,	 0 
	 50 ,	 0 
	 50 ,	 0 
	 50 ,	 0 
	 50 ,	 0 
	 50 ,	 0 
	 50 ,	 0 
	 50 ,	 0 
	 50 ,	 0 
	 50 ,	 0 
	 50 ,	 0 
	 50 ,	 0 
	 50 ,	 0 
	 50 ,	 0 
	 50 ,	 0 
	 50 ,	 0 
	 50 ,	 0 
	 50 ,	 0 
	 50 ,	 0 
	 50 ,	 0 
	 50 ,	 0 
	 50 ,	 0 
	 50 ,	 0 
	 50 ,	 0 
	 50 ,	 0 
	 50 ,	 0 
	 50 ,	 0 
END
BEGIN
	 50 ,	 0 
	 50 ,	 0 
	 50 ,	 0 
	 50 ,	 0 
	 50 ,	 0 
	 50 ,	 0 
	 50 ,	 0 
	 50 ,	 0 
	 50 ,	 0 
	 50 ,	 0 
	 50 ,	 0 
	 50 ,	 0 
	 50 ,	 0 
	 50 ,	 0 
	 50 ,	 0 
	 50 ,	 0 
	 50 ,	 0 
	 50 ,	 0 
	 50 ,	 0 
	 50 ,	 0 
	 50 ,	 0 
	 50 ,	 0 
	 50 ,	 0 
	 50 ,	 0 
	 50 ,	 0 
	 50 ,	 0 
	 50 ,	 0 
	 50 ,	 0 
	 50 ,	 0 
	 50 ,	 0 
	 50 ,	 0 
	 50 ,	 0 
	 50 ,	 0 
	 50 ,	 0 
	 50 ,	 0 
	 50 ,	 0 
	 50 ,	 0 
	 50 ,	 0 
	 50 ,	 0 
	 50 ,	 0 
	 50 ,	 0 
	 50 ,	 0 
	 50 ,	 0 
	 50 ,	 0 
	 50 ,	 0 
	 50 ,	 0 
	 50 ,	 0 
	 50 ,	 0 
	 50 ,	 0 
	 50 ,	 0 
END
BEGIN
	 50 ,	 0 
	 50 ,	 0 
	 50 ,	 0 
	 50 ,	 0 
	 50 ,	 0 
	 50 ,	 0 
	 50 ,	 0 
	 50 ,	 0 
	 50 ,	 0 
	 50 ,	 0 
	 50 ,	 0 
	 50 ,	 0 
	 50 ,	 0 
	 50 ,	 0 
	 50 ,	 0 
	 50 ,	 0 
	 50 ,	 0 
	 50 ,	 0 
	 50 ,	 0 
	 50 ,	 0 
	 50 ,	 0 
	 50 ,	 0 
	 50 ,	 0 
	 50 ,	 0 
	 50 ,	 0 
	 50 ,	 0 
	 50 ,	 0 
	 50 ,	 0 
	 50 ,	 0 
	 50 ,	 0 
	 50 ,	 0 
	 50 ,	 0 
	 50 ,	 0 
	 50 ,	 0 
	 50 ,	 0 
	 50 ,	 0 
	 50 ,	 0 
	 50 ,	 0 
	 50 ,	 0 
	 50 ,	 0 
	 50 ,	 0 
	 50 ,	 0 
	 50 ,	 0 
	 50 ,	 0 
	 50 ,	 0 
	 50 ,	 0 
	 50 ,	 0 
	 50 ,	 0 
	 50 ,	 0 
	 50 ,	 0 
END
