CITIFILE A.01.01
#Momentum: B.09.20.456 (*) 372.600 Nov 12 2011 
#Momentum Date and Time: Wed Oct 10 22:00:21 2012

NAME Momentum.SP

#  mode: MW    project: proj    reference: S_50

CONSTANT NBR_OF_PORTS 2

CONSTANT NORMALIZATION 1

VAR freq MAG 11

DATA S[1,1] RI
DATA S[1,2] RI
DATA S[2,1] RI
DATA S[2,2] RI
DATA S_50[1,1] RI
DATA S_50[1,2] RI
DATA S_50[2,1] RI
DATA S_50[2,2] RI
DATA S_Z0[1,1] RI
DATA S_Z0[1,2] RI
DATA S_Z0[2,1] RI
DATA S_Z0[2,2] RI
DATA Z0[1] RI
DATA Z0[2] RI
DATA PORTZ[1] RI
DATA PORTZ[2] RI

VAR_LIST_BEGIN
	 100000000
	 140277777.8
	 341666666.8
	 583333333.5
	 825000000.3
	 1066666667
	 1550000000
	 2033333333
	 2516666667
	 2838888889
	 3000000000
VAR_LIST_END

BEGIN
	 0.00241927065,	 0.0131035069
	 0.0047109881,	 0.018792357
	 0.0309564758,	 0.0446056892
	 0.103116251,	 0.0515344847
	 0.20524773,	-0.016185261
	 0.257952464,	-0.191248245
	-0.0700828176,	-0.529044353
	-0.561529772,	-0.327161429
	-0.663509556,	 0.212407487
	-0.456386772,	 0.541736117
	-0.287895055,	 0.654148229
END
BEGIN
	 0.976565231,	-0.208498456
	 0.954883138,	-0.289527463
	 0.748598039,	-0.651480144
	 0.33047138,	-0.926884327
	-0.172093151,	-0.955482052
	-0.608153766,	-0.718127685
	-0.818961519,	 0.0993236647
	-0.394637508,	 0.6083538
	 0.176965668,	 0.655311465
	 0.496501293,	 0.442328479
	 0.600842857,	 0.270644607
END
BEGIN
	 0.976565231,	-0.208498456
	 0.954883138,	-0.289527463
	 0.748598039,	-0.651480144
	 0.33047138,	-0.926884327
	-0.172093151,	-0.955482052
	-0.608153766,	-0.718127685
	-0.818961519,	 0.0993236647
	-0.394637508,	 0.6083538
	 0.176965668,	 0.655311465
	 0.496501293,	 0.442328479
	 0.600842857,	 0.270644607
END
BEGIN
	 0.00243206488,	 0.0131002572
	 0.00473494839,	 0.018783073
	 0.0310423702,	 0.0444848973
	 0.103102789,	 0.0511422093
	 0.204856778,	-0.0166883241
	 0.257195106,	-0.191480393
	-0.0708199849,	-0.528484821
	-0.561938203,	-0.324920116
	-0.659216549,	 0.216875047
	-0.446464807,	 0.543462201
	-0.275797285,	 0.652309527
END
BEGIN
	 0.00241927065,	 0.0131035069
	 0.0047109881,	 0.018792357
	 0.0309564758,	 0.0446056892
	 0.103116251,	 0.0515344847
	 0.20524773,	-0.016185261
	 0.257952464,	-0.191248245
	-0.0700828176,	-0.529044353
	-0.561529772,	-0.327161429
	-0.663509556,	 0.212407487
	-0.456386772,	 0.541736117
	-0.287895055,	 0.654148229
END
BEGIN
	 0.976565231,	-0.208498456
	 0.954883138,	-0.289527463
	 0.748598039,	-0.651480144
	 0.33047138,	-0.926884327
	-0.172093151,	-0.955482052
	-0.608153766,	-0.718127685
	-0.818961519,	 0.0993236647
	-0.394637508,	 0.6083538
	 0.176965668,	 0.655311465
	 0.496501293,	 0.442328479
	 0.600842857,	 0.270644607
END
BEGIN
	 0.976565231,	-0.208498456
	 0.954883138,	-0.289527463
	 0.748598039,	-0.651480144
	 0.33047138,	-0.926884327
	-0.172093151,	-0.955482052
	-0.608153766,	-0.718127685
	-0.818961519,	 0.0993236647
	-0.394637508,	 0.6083538
	 0.176965668,	 0.655311465
	 0.496501293,	 0.442328479
	 0.600842857,	 0.270644607
END
BEGIN
	 0.00243206488,	 0.0131002572
	 0.00473494839,	 0.018783073
	 0.0310423702,	 0.0444848973
	 0.103102789,	 0.0511422093
	 0.204856778,	-0.0166883241
	 0.257195106,	-0.191480393
	-0.0708199849,	-0.528484821
	-0.561938203,	-0.324920116
	-0.659216549,	 0.216875047
	-0.446464807,	 0.543462201
	-0.275797285,	 0.652309527
END
BEGIN
	 0.00241927065,	 0.0131035069
	 0.0047109881,	 0.018792357
	 0.0309564758,	 0.0446056892
	 0.103116251,	 0.0515344847
	 0.20524773,	-0.016185261
	 0.257952464,	-0.191248245
	-0.0700828176,	-0.529044353
	-0.561529772,	-0.327161429
	-0.663509556,	 0.212407487
	-0.456386772,	 0.541736117
	-0.287895055,	 0.654148229
END
BEGIN
	 0.976565231,	-0.208498456
	 0.954883138,	-0.289527463
	 0.748598039,	-0.651480144
	 0.33047138,	-0.926884327
	-0.172093151,	-0.955482052
	-0.608153766,	-0.718127685
	-0.818961519,	 0.0993236647
	-0.394637508,	 0.6083538
	 0.176965668,	 0.655311465
	 0.496501293,	 0.442328479
	 0.600842857,	 0.270644607
END
BEGIN
	 0.976565231,	-0.208498456
	 0.954883138,	-0.289527463
	 0.748598039,	-0.651480144
	 0.33047138,	-0.926884327
	-0.172093151,	-0.955482052
	-0.608153766,	-0.718127685
	-0.818961519,	 0.0993236647
	-0.394637508,	 0.6083538
	 0.176965668,	 0.655311465
	 0.496501293,	 0.442328479
	 0.600842857,	 0.270644607
END
BEGIN
	 0.00243206488,	 0.0131002572
	 0.00473494839,	 0.018783073
	 0.0310423702,	 0.0444848973
	 0.103102789,	 0.0511422093
	 0.204856778,	-0.0166883241
	 0.257195106,	-0.191480393
	-0.0708199849,	-0.528484821
	-0.561938203,	-0.324920116
	-0.659216549,	 0.216875047
	-0.446464807,	 0.543462201
	-0.275797285,	 0.652309527
END
BEGIN
	 50 ,	 0 
	 50 ,	 0 
	 50 ,	 0 
	 50 ,	 0 
	 50 ,	 0 
	 50 ,	 0 
	 50 ,	 0 
	 50 ,	 0 
	 50 ,	 0 
	 50 ,	 0 
	 50 ,	 0 
END
BEGIN
	 50 ,	 0 
	 50 ,	 0 
	 50 ,	 0 
	 50 ,	 0 
	 50 ,	 0 
	 50 ,	 0 
	 50 ,	 0 
	 50 ,	 0 
	 50 ,	 0 
	 50 ,	 0 
	 50 ,	 0 
END
BEGIN
	 50 ,	 0 
	 50 ,	 0 
	 50 ,	 0 
	 50 ,	 0 
	 50 ,	 0 
	 50 ,	 0 
	 50 ,	 0 
	 50 ,	 0 
	 50 ,	 0 
	 50 ,	 0 
	 50 ,	 0 
END
BEGIN
	 50 ,	 0 
	 50 ,	 0 
	 50 ,	 0 
	 50 ,	 0 
	 50 ,	 0 
	 50 ,	 0 
	 50 ,	 0 
	 50 ,	 0 
	 50 ,	 0 
	 50 ,	 0 
	 50 ,	 0 
END
