CITIFILE A.01.01
#Momentum: B.09.00.103 (*) 370.600 Mar  9 2011 
#Momentum Date and Time: Wed Oct 10 15:48:12 2012

NAME Momentum.SP

#  mode: MW    project: proj    reference: S_50

CONSTANT NBR_OF_PORTS 2

CONSTANT NORMALIZATION 1

VAR freq MAG 9

DATA S[1,1] RI
DATA S[1,2] RI
DATA S[2,1] RI
DATA S[2,2] RI
DATA S_50[1,1] RI
DATA S_50[1,2] RI
DATA S_50[2,1] RI
DATA S_50[2,2] RI
DATA S_Z0[1,1] RI
DATA S_Z0[1,2] RI
DATA S_Z0[2,1] RI
DATA S_Z0[2,2] RI
DATA Z0[1] RI
DATA Z0[2] RI
DATA PORTZ[1] RI
DATA PORTZ[2] RI

VAR_LIST_BEGIN
	 100000000
	 341666666.8
	 583333333.5
	 1066666667
	 1550000000
	 2033333333
	 2516666667
	 2838888889
	 3000000000
VAR_LIST_END

BEGIN
	 0.00508835879,	 0.032921157
	 0.0582034767,	 0.0906002191
	 0.13321951,	 0.097203806
	 0.236690196,	 0.0135921962
	 0.280614687,	-0.100528809
	 0.288184615,	-0.270046166
	 0.137331685,	-0.485001709
	-0.0694768445,	-0.550076907
	-0.18284988,	-0.541361481
END
BEGIN
	 0.976085445,	-0.208521304
	 0.750473485,	-0.650037382
	 0.343611832,	-0.923251472
	-0.571638125,	-0.775057482
	-0.936060464,	 0.0514029239
	-0.441920418,	 0.785643375
	 0.3897523,	 0.747741111
	 0.71935637,	 0.349251932
	 0.770964225,	 0.108623061
END
BEGIN
	 0.976085445,	-0.208521304
	 0.750473485,	-0.650037382
	 0.343611832,	-0.923251472
	-0.571638125,	-0.775057482
	-0.936060464,	 0.0514029239
	-0.441920418,	 0.785643375
	 0.3897523,	 0.747741111
	 0.71935637,	 0.349251932
	 0.770964225,	 0.108623061
END
BEGIN
	 0.00840170164,	 0.0321796355
	 0.0875385021,	 0.065090992
	 0.171386688,	-0.00601226049
	 0.0411933972,	-0.246394146
	-0.283668851,	-0.065253341
	-0.0674810094,	 0.369966684
	 0.473789838,	 0.148285095
	 0.46320234,	-0.293945116
	 0.310204978,	-0.469106504
END
BEGIN
	 0.00508835879,	 0.032921157
	 0.0582034767,	 0.0906002191
	 0.13321951,	 0.097203806
	 0.236690196,	 0.0135921962
	 0.280614687,	-0.100528809
	 0.288184615,	-0.270046166
	 0.137331685,	-0.485001709
	-0.0694768445,	-0.550076907
	-0.18284988,	-0.541361481
END
BEGIN
	 0.976085445,	-0.208521304
	 0.750473485,	-0.650037382
	 0.343611832,	-0.923251472
	-0.571638125,	-0.775057482
	-0.936060464,	 0.0514029239
	-0.441920418,	 0.785643375
	 0.3897523,	 0.747741111
	 0.71935637,	 0.349251932
	 0.770964225,	 0.108623061
END
BEGIN
	 0.976085445,	-0.208521304
	 0.750473485,	-0.650037382
	 0.343611832,	-0.923251472
	-0.571638125,	-0.775057482
	-0.936060464,	 0.0514029239
	-0.441920418,	 0.785643375
	 0.3897523,	 0.747741111
	 0.71935637,	 0.349251932
	 0.770964225,	 0.108623061
END
BEGIN
	 0.00840170164,	 0.0321796355
	 0.0875385021,	 0.065090992
	 0.171386688,	-0.00601226049
	 0.0411933972,	-0.246394146
	-0.283668851,	-0.065253341
	-0.0674810094,	 0.369966684
	 0.473789838,	 0.148285095
	 0.46320234,	-0.293945116
	 0.310204978,	-0.469106504
END
BEGIN
	 0.00508835879,	 0.032921157
	 0.0582034767,	 0.0906002191
	 0.13321951,	 0.097203806
	 0.236690196,	 0.0135921962
	 0.280614687,	-0.100528809
	 0.288184615,	-0.270046166
	 0.137331685,	-0.485001709
	-0.0694768445,	-0.550076907
	-0.18284988,	-0.541361481
END
BEGIN
	 0.976085445,	-0.208521304
	 0.750473485,	-0.650037382
	 0.343611832,	-0.923251472
	-0.571638125,	-0.775057482
	-0.936060464,	 0.0514029239
	-0.441920418,	 0.785643375
	 0.3897523,	 0.747741111
	 0.71935637,	 0.349251932
	 0.770964225,	 0.108623061
END
BEGIN
	 0.976085445,	-0.208521304
	 0.750473485,	-0.650037382
	 0.343611832,	-0.923251472
	-0.571638125,	-0.775057482
	-0.936060464,	 0.0514029239
	-0.441920418,	 0.785643375
	 0.3897523,	 0.747741111
	 0.71935637,	 0.349251932
	 0.770964225,	 0.108623061
END
BEGIN
	 0.00840170164,	 0.0321796355
	 0.0875385021,	 0.065090992
	 0.171386688,	-0.00601226049
	 0.0411933972,	-0.246394146
	-0.283668851,	-0.065253341
	-0.0674810094,	 0.369966684
	 0.473789838,	 0.148285095
	 0.46320234,	-0.293945116
	 0.310204978,	-0.469106504
END
BEGIN
	 50 ,	 0 
	 50 ,	 0 
	 50 ,	 0 
	 50 ,	 0 
	 50 ,	 0 
	 50 ,	 0 
	 50 ,	 0 
	 50 ,	 0 
	 50 ,	 0 
END
BEGIN
	 50 ,	 0 
	 50 ,	 0 
	 50 ,	 0 
	 50 ,	 0 
	 50 ,	 0 
	 50 ,	 0 
	 50 ,	 0 
	 50 ,	 0 
	 50 ,	 0 
END
BEGIN
	 50 ,	 0 
	 50 ,	 0 
	 50 ,	 0 
	 50 ,	 0 
	 50 ,	 0 
	 50 ,	 0 
	 50 ,	 0 
	 50 ,	 0 
	 50 ,	 0 
END
BEGIN
	 50 ,	 0 
	 50 ,	 0 
	 50 ,	 0 
	 50 ,	 0 
	 50 ,	 0 
	 50 ,	 0 
	 50 ,	 0 
	 50 ,	 0 
	 50 ,	 0 
END
