CITIFILE A.01.01
#Momentum: B.09.00.103 (*) 370.600 Mar  9 2011 
#Momentum Date and Time: Wed Oct 10 15:34:23 2012

NAME Momentum.SP

#  mode: MW    project: proj    reference: S_50

CONSTANT NBR_OF_PORTS 2

CONSTANT NORMALIZATION 1

VAR freq MAG 9

DATA S[1,1] RI
DATA S[1,2] RI
DATA S[2,1] RI
DATA S[2,2] RI
DATA S_50[1,1] RI
DATA S_50[1,2] RI
DATA S_50[2,1] RI
DATA S_50[2,2] RI
DATA S_Z0[1,1] RI
DATA S_Z0[1,2] RI
DATA S_Z0[2,1] RI
DATA S_Z0[2,2] RI
DATA Z0[1] RI
DATA Z0[2] RI
DATA PORTZ[1] RI
DATA PORTZ[2] RI

VAR_LIST_BEGIN
	 100000000
	 341666666.8
	 583333333.5
	 1066666667
	 1550000000
	 2033333333
	 2516666667
	 2838888889
	 3000000000
VAR_LIST_END

BEGIN
	 0.00414023037,	 0.0260387572
	 0.0481917375,	 0.0699660203
	 0.108350769,	 0.0695345246
	 0.177029969,	-0.00853078256
	 0.185983827,	-0.088429992
	 0.187410221,	-0.18316842
	 0.102348526,	-0.329667446
	-0.0424403031,	-0.385086119
	-0.126917418,	-0.380226766
END
BEGIN
	 0.977619927,	-0.202224928
	 0.766166759,	-0.6350624
	 0.378644728,	-0.915637985
	-0.528856607,	-0.821148033
	-0.961340727,	-0.0396476569
	-0.570786735,	 0.757663644
	 0.290019424,	 0.875028645
	 0.727081432,	 0.523684858
	 0.837852337,	 0.276295925
END
BEGIN
	 0.977619927,	-0.202224928
	 0.766166759,	-0.6350624
	 0.378644728,	-0.915637985
	-0.528856607,	-0.821148033
	-0.961340727,	-0.0396476569
	-0.570786735,	 0.757663644
	 0.290019424,	 0.875028645
	 0.727081432,	 0.523684858
	 0.837852337,	 0.276295925
END
BEGIN
	 0.00611677664,	 0.0256094751
	 0.0660435948,	 0.0550988673
	 0.133506758,	 0.00828323808
	 0.0672266612,	-0.175548697
	-0.173163034,	-0.100655967
	-0.111081839,	 0.213946351
	 0.275045895,	 0.190720365
	 0.374013505,	-0.0842048842
	 0.324838927,	-0.228431339
END
BEGIN
	 0.00414023037,	 0.0260387572
	 0.0481917375,	 0.0699660203
	 0.108350769,	 0.0695345246
	 0.177029969,	-0.00853078256
	 0.185983827,	-0.088429992
	 0.187410221,	-0.18316842
	 0.102348526,	-0.329667446
	-0.0424403031,	-0.385086119
	-0.126917418,	-0.380226766
END
BEGIN
	 0.977619927,	-0.202224928
	 0.766166759,	-0.6350624
	 0.378644728,	-0.915637985
	-0.528856607,	-0.821148033
	-0.961340727,	-0.0396476569
	-0.570786735,	 0.757663644
	 0.290019424,	 0.875028645
	 0.727081432,	 0.523684858
	 0.837852337,	 0.276295925
END
BEGIN
	 0.977619927,	-0.202224928
	 0.766166759,	-0.6350624
	 0.378644728,	-0.915637985
	-0.528856607,	-0.821148033
	-0.961340727,	-0.0396476569
	-0.570786735,	 0.757663644
	 0.290019424,	 0.875028645
	 0.727081432,	 0.523684858
	 0.837852337,	 0.276295925
END
BEGIN
	 0.00611677664,	 0.0256094751
	 0.0660435948,	 0.0550988673
	 0.133506758,	 0.00828323808
	 0.0672266612,	-0.175548697
	-0.173163034,	-0.100655967
	-0.111081839,	 0.213946351
	 0.275045895,	 0.190720365
	 0.374013505,	-0.0842048842
	 0.324838927,	-0.228431339
END
BEGIN
	 0.00414023037,	 0.0260387572
	 0.0481917375,	 0.0699660203
	 0.108350769,	 0.0695345246
	 0.177029969,	-0.00853078256
	 0.185983827,	-0.088429992
	 0.187410221,	-0.18316842
	 0.102348526,	-0.329667446
	-0.0424403031,	-0.385086119
	-0.126917418,	-0.380226766
END
BEGIN
	 0.977619927,	-0.202224928
	 0.766166759,	-0.6350624
	 0.378644728,	-0.915637985
	-0.528856607,	-0.821148033
	-0.961340727,	-0.0396476569
	-0.570786735,	 0.757663644
	 0.290019424,	 0.875028645
	 0.727081432,	 0.523684858
	 0.837852337,	 0.276295925
END
BEGIN
	 0.977619927,	-0.202224928
	 0.766166759,	-0.6350624
	 0.378644728,	-0.915637985
	-0.528856607,	-0.821148033
	-0.961340727,	-0.0396476569
	-0.570786735,	 0.757663644
	 0.290019424,	 0.875028645
	 0.727081432,	 0.523684858
	 0.837852337,	 0.276295925
END
BEGIN
	 0.00611677664,	 0.0256094751
	 0.0660435948,	 0.0550988673
	 0.133506758,	 0.00828323808
	 0.0672266612,	-0.175548697
	-0.173163034,	-0.100655967
	-0.111081839,	 0.213946351
	 0.275045895,	 0.190720365
	 0.374013505,	-0.0842048842
	 0.324838927,	-0.228431339
END
BEGIN
	 50 ,	 0 
	 50 ,	 0 
	 50 ,	 0 
	 50 ,	 0 
	 50 ,	 0 
	 50 ,	 0 
	 50 ,	 0 
	 50 ,	 0 
	 50 ,	 0 
END
BEGIN
	 50 ,	 0 
	 50 ,	 0 
	 50 ,	 0 
	 50 ,	 0 
	 50 ,	 0 
	 50 ,	 0 
	 50 ,	 0 
	 50 ,	 0 
	 50 ,	 0 
END
BEGIN
	 50 ,	 0 
	 50 ,	 0 
	 50 ,	 0 
	 50 ,	 0 
	 50 ,	 0 
	 50 ,	 0 
	 50 ,	 0 
	 50 ,	 0 
	 50 ,	 0 
END
BEGIN
	 50 ,	 0 
	 50 ,	 0 
	 50 ,	 0 
	 50 ,	 0 
	 50 ,	 0 
	 50 ,	 0 
	 50 ,	 0 
	 50 ,	 0 
	 50 ,	 0 
END
