CITIFILE A.01.01
#Momentum: B.09.00.103 (*) 370.600 Mar  9 2011 
#Momentum Date and Time: Wed Oct 10 14:39:31 2012

NAME PortSet1/TwoP0_Dsolver_data/first_odd_mode_is_1/most_even_mode_is_1/PMLG4/LS0

CONSTANT NBR_OF_PORTS 4

VAR freq MAG 20

DATA GAMMA_1[1] RI
DATA Z0_1[1,1] RI
DATA LAMBADAI_1[1,1] RI
DATA Zcir_1[1,1] RI
DATA Ycir_1[1,1] RI

VAR_LIST_BEGIN
	 100000000
	 101000000
	 102000000
	 103000000
	 133449100.4
	 163171902
	 192894703.6
	 222617505.3
	 277674179.7
	 358394374.5
	 456530890.4
	 569680692.7
	 707597221
	 883725539
	 1108995224
	 1391800731
	 1743461978
	 2181858199
	 2731122895
	 3000000000
VAR_LIST_END

BEGIN
	 0.03327499607,	 3.957946799
	 0.03352965273,	 3.997335871
	 0.03378392497,	 4.036723464
	 0.03403781842,	 4.076109594
	 0.04161154298,	 5.27475665
	 0.04877501371,	 6.443845522
	 0.05577363115,	 7.612184003
	 0.06264398714,	 8.779907522
	 0.07511373322,	 10.94161872
	 0.09295777188,	 14.10860765
	 0.1141670748,	 17.95617237
	 0.13816617,	 22.38973759
	 0.1669590925,	 27.79120186
	 0.2032193252,	 34.68678512
	 0.24902939,	 43.50459136
	 0.3059506595,	 54.57500087
	 0.3761696351,	 68.34581367
	 0.4632366298,	 85.52690288
	 0.5720444915,	 107.0829355
	 0.6253075161,	 117.6496017
END
BEGIN
	 47.777317995562584 ,	 0.025020971244785147 
	 47.777723751812836 ,	 0.02595969818242206 
	 47.778130058187124 ,	 0.026884768401821479 
	 47.778536841287007 ,	 0.027796512466517584 
	 47.790888183275747 ,	 0.050504976412602064 
	 47.80239397614104 ,	 0.066288497036376182 
	 47.8131138042434 ,	 0.07830603838527854 
	 47.823042646814955 ,	 0.087860924683545047 
	 47.839582613774084 ,	 0.10136587527182858 
	 47.860318737635176 ,	 0.11529047629173934 
	 47.88137712164967 ,	 0.12703162706958054 
	 47.901654866649508 ,	 0.13666900749288527 
	 47.922323579755158 ,	 0.14519837606104924 
	 47.94427624919345 ,	 0.15311805611755952 
	 47.96752358575781 ,	 0.16045157402319657 
	 47.991825560987408 ,	 0.16712633537893379 
	 48.017521134629106 ,	 0.17319458148803554 
	 48.045835742606712 ,	 0.17879324140145911 
	 48.079057519977049 ,	 0.18406231595649655 
	 48.095248214609427 ,	 0.18619402967565585 
END
BEGIN
	 0.03327499607,	 3.957946799
	 0.03352965273,	 3.997335871
	 0.03378392497,	 4.036723464
	 0.03403781842,	 4.076109594
	 0.04161154298,	 5.27475665
	 0.04877501371,	 6.443845522
	 0.05577363115,	 7.612184003
	 0.06264398714,	 8.779907522
	 0.07511373322,	 10.94161872
	 0.09295777188,	 14.10860765
	 0.1141670748,	 17.95617237
	 0.13816617,	 22.38973759
	 0.1669590925,	 27.79120186
	 0.2032193252,	 34.68678512
	 0.24902939,	 43.50459136
	 0.3059506595,	 54.57500087
	 0.3761696351,	 68.34581367
	 0.4632366298,	 85.52690288
	 0.5720444915,	 107.0829355
	 0.6253075161,	 117.6496017
END
BEGIN
	 0.00395709645,	 7.988829178e-010
	 0.003976851846,	 7.988517762e-010
	 0.003996509228,	 7.98821094e-010
	 0.004016070021,	 7.987908603e-010
	 0.004571575034,	 7.980406326e-010
	 0.005055099766,	 7.975234355e-010
	 0.005496320938,	 7.971328691e-010
	 0.005904528739,	 7.968251448e-010
	 0.006594379187,	 7.963963893e-010
	 0.007491831685,	 7.95966803e-010
	 0.008455583242,	 7.956225051e-010
	 0.009445495491,	 7.953626087e-010
	 0.01052697269,	 7.951635908e-010
	 0.01176446274,	 7.950254669e-010
	 0.01317903577,	 7.949696249e-010
	 0.01476443441,	 7.950271198e-010
	 0.01652537031,	 7.9523832e-010
	 0.01848791458,	 7.956649602e-010
	 0.02068701543,	 7.964038602e-010
	 0.02168305901,	 7.968375964e-010
END
BEGIN
	 0.2787217028,	 4.967031497e-008
	 0.2815091099,	 4.966751871e-008
	 0.2842965213,	 4.966475024e-008
	 0.2870839372,	 4.966200902e-008
	 0.371960563,	 4.958934022e-008
	 0.4548177188,	 4.953309484e-008
	 0.5376809577,	 4.94864534e-008
	 0.6205512881,	 4.944666746e-008
	 0.7740771248,	 4.93856973e-008
	 0.99922764678382781 ,	 4.9316100838572976e-008 
	 1.2730770482661813 ,	 4.9251259493281497e-008 
	 1.5890162632388136 ,	 4.9193368687601892e-008 
	 1.9744406878535614 ,	 4.9138535679414644e-008 
	 2.4672629648965758 ,	 4.9084919247468368e-008 
	 3.0987261729114643 ,	 4.9033817313310081e-008 
	 3.893513500525569 ,	 4.8987630662851267e-008 
	 4.8853381668811409 ,	 4.8948139521288511e-008 
	 6.1277706256036799 ,	 4.8916622518758657e-008 
	 7.6944337538518761 ,	 4.8894340444307218e-008 
	 8.4655627462259453 ,	 4.8888008987291469e-008 
END
CITIFILE A.01.01
NAME PortSet2/TwoP0_Dsolver_data/first_odd_mode_is_1/most_even_mode_is_1/PMLG4/LS0

VAR freq MAG 20

DATA GAMMA_1[1] RI
DATA Z0_1[1,1] RI
DATA LAMBADAI_1[1,1] RI
DATA Zcir_1[1,1] RI
DATA Ycir_1[1,1] RI

VAR_LIST_BEGIN
	 100000000
	 101000000
	 102000000
	 103000000
	 133449100.4
	 163171902
	 192894703.6
	 222617505.3
	 277674179.7
	 358394374.5
	 456530890.4
	 569680692.7
	 707597221
	 883725539
	 1108995224
	 1391800731
	 1743461978
	 2181858199
	 2731122895
	 3000000000
VAR_LIST_END

BEGIN
	 0.03327499607,	 3.957946799
	 0.03352965273,	 3.997335871
	 0.03378392497,	 4.036723464
	 0.03403781842,	 4.076109594
	 0.04161154298,	 5.27475665
	 0.04877501371,	 6.443845522
	 0.05577363115,	 7.612184003
	 0.06264398714,	 8.779907522
	 0.07511373322,	 10.94161872
	 0.09295777188,	 14.10860765
	 0.1141670748,	 17.95617237
	 0.13816617,	 22.38973759
	 0.1669590925,	 27.79120186
	 0.2032193252,	 34.68678512
	 0.24902939,	 43.50459136
	 0.3059506595,	 54.57500087
	 0.3761696351,	 68.34581367
	 0.4632366298,	 85.52690288
	 0.5720444915,	 107.0829355
	 0.6253075161,	 117.6496017
END
BEGIN
	 47.777317995562584 ,	 0.025020971244785147 
	 47.777723751812836 ,	 0.02595969818242206 
	 47.778130058187124 ,	 0.026884768401821479 
	 47.778536841287007 ,	 0.027796512466517584 
	 47.790888183275747 ,	 0.050504976412602064 
	 47.80239397614104 ,	 0.066288497036376182 
	 47.8131138042434 ,	 0.07830603838527854 
	 47.823042646814955 ,	 0.087860924683545047 
	 47.839582613774084 ,	 0.10136587527182858 
	 47.860318737635176 ,	 0.11529047629173934 
	 47.88137712164967 ,	 0.12703162706958054 
	 47.901654866649508 ,	 0.13666900749288527 
	 47.922323579755158 ,	 0.14519837606104924 
	 47.94427624919345 ,	 0.15311805611755952 
	 47.96752358575781 ,	 0.16045157402319657 
	 47.991825560987408 ,	 0.16712633537893379 
	 48.017521134629106 ,	 0.17319458148803554 
	 48.045835742606712 ,	 0.17879324140145911 
	 48.079057519977049 ,	 0.18406231595649655 
	 48.095248214609427 ,	 0.18619402967565585 
END
BEGIN
	 0.03327499607,	 3.957946799
	 0.03352965273,	 3.997335871
	 0.03378392497,	 4.036723464
	 0.03403781842,	 4.076109594
	 0.04161154298,	 5.27475665
	 0.04877501371,	 6.443845522
	 0.05577363115,	 7.612184003
	 0.06264398714,	 8.779907522
	 0.07511373322,	 10.94161872
	 0.09295777188,	 14.10860765
	 0.1141670748,	 17.95617237
	 0.13816617,	 22.38973759
	 0.1669590925,	 27.79120186
	 0.2032193252,	 34.68678512
	 0.24902939,	 43.50459136
	 0.3059506595,	 54.57500087
	 0.3761696351,	 68.34581367
	 0.4632366298,	 85.52690288
	 0.5720444915,	 107.0829355
	 0.6253075161,	 117.6496017
END
BEGIN
	 0.00395709645,	 7.988829178e-010
	 0.003976851846,	 7.988517762e-010
	 0.003996509228,	 7.98821094e-010
	 0.004016070021,	 7.987908603e-010
	 0.004571575034,	 7.980406326e-010
	 0.005055099766,	 7.975234355e-010
	 0.005496320938,	 7.971328691e-010
	 0.005904528739,	 7.968251448e-010
	 0.006594379187,	 7.963963893e-010
	 0.007491831685,	 7.95966803e-010
	 0.008455583242,	 7.956225051e-010
	 0.009445495491,	 7.953626087e-010
	 0.01052697269,	 7.951635908e-010
	 0.01176446274,	 7.950254669e-010
	 0.01317903577,	 7.949696249e-010
	 0.01476443441,	 7.950271198e-010
	 0.01652537031,	 7.9523832e-010
	 0.01848791458,	 7.956649602e-010
	 0.02068701543,	 7.964038602e-010
	 0.02168305901,	 7.968375964e-010
END
BEGIN
	 0.2787217028,	 4.967031497e-008
	 0.2815091099,	 4.966751871e-008
	 0.2842965213,	 4.966475024e-008
	 0.2870839372,	 4.966200902e-008
	 0.371960563,	 4.958934022e-008
	 0.4548177188,	 4.953309484e-008
	 0.5376809577,	 4.94864534e-008
	 0.6205512881,	 4.944666746e-008
	 0.7740771248,	 4.93856973e-008
	 0.99922764678382781 ,	 4.9316100838572976e-008 
	 1.2730770482661813 ,	 4.9251259493281497e-008 
	 1.5890162632388136 ,	 4.9193368687601892e-008 
	 1.9744406878535614 ,	 4.9138535679414644e-008 
	 2.4672629648965758 ,	 4.9084919247468368e-008 
	 3.0987261729114643 ,	 4.9033817313310081e-008 
	 3.893513500525569 ,	 4.8987630662851267e-008 
	 4.8853381668811409 ,	 4.8948139521288511e-008 
	 6.1277706256036799 ,	 4.8916622518758657e-008 
	 7.6944337538518761 ,	 4.8894340444307218e-008 
	 8.4655627462259453 ,	 4.8888008987291469e-008 
END
CITIFILE A.01.01
NAME PortSet3/TwoP0_Dsolver_data/first_odd_mode_is_1/most_even_mode_is_1/PMLG4/LS0

VAR freq MAG 20

DATA GAMMA_1[1] RI
DATA Z0_1[1,1] RI
DATA LAMBADAI_1[1,1] RI
DATA Zcir_1[1,1] RI
DATA Ycir_1[1,1] RI

VAR_LIST_BEGIN
	 100000000
	 101000000
	 102000000
	 103000000
	 133449100.4
	 163171902
	 192894703.6
	 222617505.3
	 277674179.7
	 358394374.5
	 456530890.4
	 569680692.7
	 707597221
	 883725539
	 1108995224
	 1391800731
	 1743461978
	 2181858199
	 2731122895
	 3000000000
VAR_LIST_END

BEGIN
	 0.03327499607,	 3.957946799
	 0.03352965273,	 3.997335871
	 0.03378392497,	 4.036723464
	 0.03403781842,	 4.076109594
	 0.04161154298,	 5.27475665
	 0.04877501371,	 6.443845522
	 0.05577363115,	 7.612184003
	 0.06264398714,	 8.779907522
	 0.07511373322,	 10.94161872
	 0.09295777188,	 14.10860765
	 0.1141670748,	 17.95617237
	 0.13816617,	 22.38973759
	 0.1669590925,	 27.79120186
	 0.2032193252,	 34.68678512
	 0.24902939,	 43.50459136
	 0.3059506595,	 54.57500087
	 0.3761696351,	 68.34581367
	 0.4632366298,	 85.52690288
	 0.5720444915,	 107.0829355
	 0.6253075161,	 117.6496017
END
BEGIN
	 47.777317995562584 ,	 0.025020971244785147 
	 47.777723751812836 ,	 0.02595969818242206 
	 47.778130058187124 ,	 0.026884768401821479 
	 47.778536841287007 ,	 0.027796512466517584 
	 47.790888183275747 ,	 0.050504976412602064 
	 47.80239397614104 ,	 0.066288497036376182 
	 47.8131138042434 ,	 0.07830603838527854 
	 47.823042646814955 ,	 0.087860924683545047 
	 47.839582613774084 ,	 0.10136587527182858 
	 47.860318737635176 ,	 0.11529047629173934 
	 47.88137712164967 ,	 0.12703162706958054 
	 47.901654866649508 ,	 0.13666900749288527 
	 47.922323579755158 ,	 0.14519837606104924 
	 47.94427624919345 ,	 0.15311805611755952 
	 47.96752358575781 ,	 0.16045157402319657 
	 47.991825560987408 ,	 0.16712633537893379 
	 48.017521134629106 ,	 0.17319458148803554 
	 48.045835742606712 ,	 0.17879324140145911 
	 48.079057519977049 ,	 0.18406231595649655 
	 48.095248214609427 ,	 0.18619402967565585 
END
BEGIN
	 0.03327499607,	 3.957946799
	 0.03352965273,	 3.997335871
	 0.03378392497,	 4.036723464
	 0.03403781842,	 4.076109594
	 0.04161154298,	 5.27475665
	 0.04877501371,	 6.443845522
	 0.05577363115,	 7.612184003
	 0.06264398714,	 8.779907522
	 0.07511373322,	 10.94161872
	 0.09295777188,	 14.10860765
	 0.1141670748,	 17.95617237
	 0.13816617,	 22.38973759
	 0.1669590925,	 27.79120186
	 0.2032193252,	 34.68678512
	 0.24902939,	 43.50459136
	 0.3059506595,	 54.57500087
	 0.3761696351,	 68.34581367
	 0.4632366298,	 85.52690288
	 0.5720444915,	 107.0829355
	 0.6253075161,	 117.6496017
END
BEGIN
	 0.00395709645,	 7.988829178e-010
	 0.003976851846,	 7.988517762e-010
	 0.003996509228,	 7.98821094e-010
	 0.004016070021,	 7.987908603e-010
	 0.004571575034,	 7.980406326e-010
	 0.005055099766,	 7.975234355e-010
	 0.005496320938,	 7.971328691e-010
	 0.005904528739,	 7.968251448e-010
	 0.006594379187,	 7.963963893e-010
	 0.007491831685,	 7.95966803e-010
	 0.008455583242,	 7.956225051e-010
	 0.009445495491,	 7.953626087e-010
	 0.01052697269,	 7.951635908e-010
	 0.01176446274,	 7.950254669e-010
	 0.01317903577,	 7.949696249e-010
	 0.01476443441,	 7.950271198e-010
	 0.01652537031,	 7.9523832e-010
	 0.01848791458,	 7.956649602e-010
	 0.02068701543,	 7.964038602e-010
	 0.02168305901,	 7.968375964e-010
END
BEGIN
	 0.2787217028,	 4.967031497e-008
	 0.2815091099,	 4.966751871e-008
	 0.2842965213,	 4.966475024e-008
	 0.2870839372,	 4.966200902e-008
	 0.371960563,	 4.958934022e-008
	 0.4548177188,	 4.953309484e-008
	 0.5376809577,	 4.94864534e-008
	 0.6205512881,	 4.944666746e-008
	 0.7740771248,	 4.93856973e-008
	 0.99922764678382781 ,	 4.9316100838572976e-008 
	 1.2730770482661813 ,	 4.9251259493281497e-008 
	 1.5890162632388136 ,	 4.9193368687601892e-008 
	 1.9744406878535614 ,	 4.9138535679414644e-008 
	 2.4672629648965758 ,	 4.9084919247468368e-008 
	 3.0987261729114643 ,	 4.9033817313310081e-008 
	 3.893513500525569 ,	 4.8987630662851267e-008 
	 4.8853381668811409 ,	 4.8948139521288511e-008 
	 6.1277706256036799 ,	 4.8916622518758657e-008 
	 7.6944337538518761 ,	 4.8894340444307218e-008 
	 8.4655627462259453 ,	 4.8888008987291469e-008 
END
CITIFILE A.01.01
NAME PortSet4/TwoP0_Dsolver_data/first_odd_mode_is_1/most_even_mode_is_1/PMLG4/LS0

VAR freq MAG 20

DATA GAMMA_1[1] RI
DATA Z0_1[1,1] RI
DATA LAMBADAI_1[1,1] RI
DATA Zcir_1[1,1] RI
DATA Ycir_1[1,1] RI

VAR_LIST_BEGIN
	 100000000
	 101000000
	 102000000
	 103000000
	 133449100.4
	 163171902
	 192894703.6
	 222617505.3
	 277674179.7
	 358394374.5
	 456530890.4
	 569680692.7
	 707597221
	 883725539
	 1108995224
	 1391800731
	 1743461978
	 2181858199
	 2731122895
	 3000000000
VAR_LIST_END

BEGIN
	 0.03327499607,	 3.957946799
	 0.03352965273,	 3.997335871
	 0.03378392497,	 4.036723464
	 0.03403781842,	 4.076109594
	 0.04161154298,	 5.27475665
	 0.04877501371,	 6.443845522
	 0.05577363115,	 7.612184003
	 0.06264398714,	 8.779907522
	 0.07511373322,	 10.94161872
	 0.09295777188,	 14.10860765
	 0.1141670748,	 17.95617237
	 0.13816617,	 22.38973759
	 0.1669590925,	 27.79120186
	 0.2032193252,	 34.68678512
	 0.24902939,	 43.50459136
	 0.3059506595,	 54.57500087
	 0.3761696351,	 68.34581367
	 0.4632366298,	 85.52690288
	 0.5720444915,	 107.0829355
	 0.6253075161,	 117.6496017
END
BEGIN
	 47.777317995562584 ,	 0.025020971244785147 
	 47.777723751812836 ,	 0.02595969818242206 
	 47.778130058187124 ,	 0.026884768401821479 
	 47.778536841287007 ,	 0.027796512466517584 
	 47.790888183275747 ,	 0.050504976412602064 
	 47.80239397614104 ,	 0.066288497036376182 
	 47.8131138042434 ,	 0.07830603838527854 
	 47.823042646814955 ,	 0.087860924683545047 
	 47.839582613774084 ,	 0.10136587527182858 
	 47.860318737635176 ,	 0.11529047629173934 
	 47.88137712164967 ,	 0.12703162706958054 
	 47.901654866649508 ,	 0.13666900749288527 
	 47.922323579755158 ,	 0.14519837606104924 
	 47.94427624919345 ,	 0.15311805611755952 
	 47.96752358575781 ,	 0.16045157402319657 
	 47.991825560987408 ,	 0.16712633537893379 
	 48.017521134629106 ,	 0.17319458148803554 
	 48.045835742606712 ,	 0.17879324140145911 
	 48.079057519977049 ,	 0.18406231595649655 
	 48.095248214609427 ,	 0.18619402967565585 
END
BEGIN
	 0.03327499607,	 3.957946799
	 0.03352965273,	 3.997335871
	 0.03378392497,	 4.036723464
	 0.03403781842,	 4.076109594
	 0.04161154298,	 5.27475665
	 0.04877501371,	 6.443845522
	 0.05577363115,	 7.612184003
	 0.06264398714,	 8.779907522
	 0.07511373322,	 10.94161872
	 0.09295777188,	 14.10860765
	 0.1141670748,	 17.95617237
	 0.13816617,	 22.38973759
	 0.1669590925,	 27.79120186
	 0.2032193252,	 34.68678512
	 0.24902939,	 43.50459136
	 0.3059506595,	 54.57500087
	 0.3761696351,	 68.34581367
	 0.4632366298,	 85.52690288
	 0.5720444915,	 107.0829355
	 0.6253075161,	 117.6496017
END
BEGIN
	 0.00395709645,	 7.988829178e-010
	 0.003976851846,	 7.988517762e-010
	 0.003996509228,	 7.98821094e-010
	 0.004016070021,	 7.987908603e-010
	 0.004571575034,	 7.980406326e-010
	 0.005055099766,	 7.975234355e-010
	 0.005496320938,	 7.971328691e-010
	 0.005904528739,	 7.968251448e-010
	 0.006594379187,	 7.963963893e-010
	 0.007491831685,	 7.95966803e-010
	 0.008455583242,	 7.956225051e-010
	 0.009445495491,	 7.953626087e-010
	 0.01052697269,	 7.951635908e-010
	 0.01176446274,	 7.950254669e-010
	 0.01317903577,	 7.949696249e-010
	 0.01476443441,	 7.950271198e-010
	 0.01652537031,	 7.9523832e-010
	 0.01848791458,	 7.956649602e-010
	 0.02068701543,	 7.964038602e-010
	 0.02168305901,	 7.968375964e-010
END
BEGIN
	 0.2787217028,	 4.967031497e-008
	 0.2815091099,	 4.966751871e-008
	 0.2842965213,	 4.966475024e-008
	 0.2870839372,	 4.966200902e-008
	 0.371960563,	 4.958934022e-008
	 0.4548177188,	 4.953309484e-008
	 0.5376809577,	 4.94864534e-008
	 0.6205512881,	 4.944666746e-008
	 0.7740771248,	 4.93856973e-008
	 0.99922764678382781 ,	 4.9316100838572976e-008 
	 1.2730770482661813 ,	 4.9251259493281497e-008 
	 1.5890162632388136 ,	 4.9193368687601892e-008 
	 1.9744406878535614 ,	 4.9138535679414644e-008 
	 2.4672629648965758 ,	 4.9084919247468368e-008 
	 3.0987261729114643 ,	 4.9033817313310081e-008 
	 3.893513500525569 ,	 4.8987630662851267e-008 
	 4.8853381668811409 ,	 4.8948139521288511e-008 
	 6.1277706256036799 ,	 4.8916622518758657e-008 
	 7.6944337538518761 ,	 4.8894340444307218e-008 
	 8.4655627462259453 ,	 4.8888008987291469e-008 
END
