CITIFILE A.01.01
#Momentum: B.09.00.103 (*) 370.600 Mar  9 2011 
#Momentum Date and Time: Wed Oct 10 14:39:41 2012

NAME Momentum.SP

#  mode: MW    project: proj    reference: S_50

CONSTANT NBR_OF_PORTS 4

CONSTANT NORMALIZATION 1

VAR freq MAG 10

DATA S[1,1] RI
DATA S[1,2] RI
DATA S[1,3] RI
DATA S[1,4] RI
DATA S[2,1] RI
DATA S[2,2] RI
DATA S[2,3] RI
DATA S[2,4] RI
DATA S[3,1] RI
DATA S[3,2] RI
DATA S[3,3] RI
DATA S[3,4] RI
DATA S[4,1] RI
DATA S[4,2] RI
DATA S[4,3] RI
DATA S[4,4] RI
DATA S_50[1,1] RI
DATA S_50[1,2] RI
DATA S_50[1,3] RI
DATA S_50[1,4] RI
DATA S_50[2,1] RI
DATA S_50[2,2] RI
DATA S_50[2,3] RI
DATA S_50[2,4] RI
DATA S_50[3,1] RI
DATA S_50[3,2] RI
DATA S_50[3,3] RI
DATA S_50[3,4] RI
DATA S_50[4,1] RI
DATA S_50[4,2] RI
DATA S_50[4,3] RI
DATA S_50[4,4] RI
DATA S_Z0[1,1] RI
DATA S_Z0[1,2] RI
DATA S_Z0[1,3] RI
DATA S_Z0[1,4] RI
DATA S_Z0[2,1] RI
DATA S_Z0[2,2] RI
DATA S_Z0[2,3] RI
DATA S_Z0[2,4] RI
DATA S_Z0[3,1] RI
DATA S_Z0[3,2] RI
DATA S_Z0[3,3] RI
DATA S_Z0[3,4] RI
DATA S_Z0[4,1] RI
DATA S_Z0[4,2] RI
DATA S_Z0[4,3] RI
DATA S_Z0[4,4] RI
DATA GAMMA[1] RI
DATA GAMMA[2] RI
DATA GAMMA[3] RI
DATA GAMMA[4] RI
DATA Z0[1] RI
DATA Z0[2] RI
DATA Z0[3] RI
DATA Z0[4] RI
DATA PORTZ[1] RI
DATA PORTZ[2] RI
DATA PORTZ[3] RI
DATA PORTZ[4] RI

VAR_LIST_BEGIN
	 100000000
	 234259259.3
	 458024691.5
	 905555555.8
	 1066666667
	 1872222222
	 2033333333
	 2677777778
	 2892592593
	 3000000000
VAR_LIST_END

BEGIN
	-0.00205894845,	-0.00898617736
	-0.00945602359,	-0.0172163727
	-0.026978693,	-0.0198669321
	-0.0423992931,	 0.00889690698
	-0.0348323335,	 0.019387614
	-0.00889225476,	-0.0168192906
	-0.0225852153,	-0.0224519886
	-0.0427021037,	 0.0201477529
	-0.0238487909,	 0.0267736284
	-0.0139870813,	 0.0239054542
END
BEGIN
	 0.978851008,	-0.19635249
	 0.89205226,	-0.443654032
	 0.617693615,	-0.776997596
	-0.197198276,	-0.966279923
	-0.485619709,	-0.856405683
	-0.843500011,	 0.48659229
	-0.648785129,	 0.721801317
	 0.480000888,	 0.829454566
	 0.772976966,	 0.560970917
	 0.871127621,	 0.387510949
END
BEGIN
	 0.00208231028,	 0.0106232769
	 0.0106592952,	 0.0220170824
	 0.0327480714,	 0.027222309
	 0.0502631425,	-0.00765442761
	 0.0393706313,	-0.0190886357
	 0.0118899591,	 0.0245976826
	 0.0252136892,	 0.0280532152
	 0.0359489536,	-0.0109998696
	 0.0190056958,	-0.0150431452
	 0.0107106901,	-0.0119934497
END
BEGIN
	-0.000963699833,	-0.00535038549
	-0.00528736671,	-0.0117435013
	-0.0193487844,	-0.0171903804
	-0.0529530533,	 0.00875060016
	-0.0560942573,	 0.0300500497
	 0.0534532764,	 0.0947409488
	 0.08630249,	 0.0802716394
	 0.137205547,	-0.0747214263
	 0.10198333,	-0.134357668
	 0.0741075053,	-0.158143681
END
BEGIN
	 0.978851008,	-0.19635249
	 0.89205226,	-0.443654032
	 0.617693615,	-0.776997596
	-0.197198276,	-0.966279923
	-0.485619709,	-0.856405683
	-0.843500011,	 0.48659229
	-0.648785129,	 0.721801317
	 0.480000888,	 0.829454566
	 0.772976966,	 0.560970917
	 0.871127621,	 0.387510949
END
BEGIN
	-0.00205894449,	-0.00898617678
	-0.00945599874,	-0.0172163637
	-0.0269785348,	-0.0198669236
	-0.042398814,	 0.00889622764
	-0.0348321292,	 0.019386509
	-0.00889273489,	-0.0168173797
	-0.0225840841,	-0.0224498102
	-0.0427001867,	 0.0201429272
	-0.0238507602,	 0.0267683016
	-0.013991014,	 0.0239011734
END
BEGIN
	-0.000963580324,	-0.0053504111
	-0.00528667486,	-0.0117438547
	-0.0193469307,	-0.0171927599
	-0.0529555225,	 0.00873900703
	-0.0561025204,	 0.0300357701
	 0.0534091245,	 0.0947670422
	 0.0862624955,	 0.080317016
	 0.137258743,	-0.0746307696
	 0.102083115,	-0.134286113
	 0.0742282179,	-0.158090838
END
BEGIN
	 0.00208231044,	 0.0106232769
	 0.0106592959,	 0.0220170819
	 0.0327480724,	 0.027222307
	 0.050263146,	-0.00765443236
	 0.0393706344,	-0.0190886467
	 0.0118899675,	 0.0245977069
	 0.0252137212,	 0.0280532257
	 0.0359489283,	-0.0109998711
	 0.0190057013,	-0.0150431535
	 0.0107107062,	-0.0119934499
END
BEGIN
	 0.00208231028,	 0.0106232769
	 0.0106592952,	 0.0220170824
	 0.0327480714,	 0.027222309
	 0.0502631425,	-0.00765442761
	 0.0393706313,	-0.0190886357
	 0.0118899591,	 0.0245976826
	 0.0252136892,	 0.0280532152
	 0.0359489536,	-0.0109998696
	 0.0190056958,	-0.0150431452
	 0.0107106901,	-0.0119934497
END
BEGIN
	-0.000963580324,	-0.0053504111
	-0.00528667486,	-0.0117438547
	-0.0193469307,	-0.0171927599
	-0.0529555225,	 0.00873900703
	-0.0561025204,	 0.0300357701
	 0.0534091245,	 0.0947670422
	 0.0862624955,	 0.080317016
	 0.137258743,	-0.0746307696
	 0.102083115,	-0.134286113
	 0.0742282179,	-0.158090838
END
BEGIN
	-0.00205894651,	-0.00898617625
	-0.00945600681,	-0.0172163597
	-0.0269785437,	-0.0198669132
	-0.0423988281,	 0.00889614678
	-0.0348321936,	 0.0193863991
	-0.00889253211,	-0.0168175018
	-0.0225839042,	-0.0224500046
	-0.0427000485,	 0.0201430125
	-0.0238508088,	 0.0267682833
	-0.0139910375,	 0.0239011601
END
BEGIN
	 0.978851008,	-0.19635249
	 0.89205226,	-0.443654032
	 0.617693614,	-0.776997597
	-0.197198269,	-0.966279925
	-0.48561971,	-0.856405683
	-0.84350001,	 0.486592293
	-0.648785126,	 0.72180132
	 0.480000842,	 0.829454595
	 0.772976984,	 0.560970891
	 0.871127634,	 0.387510918
END
BEGIN
	-0.000963699833,	-0.00535038549
	-0.00528736671,	-0.0117435013
	-0.0193487844,	-0.0171903804
	-0.0529530533,	 0.00875060016
	-0.0560942573,	 0.0300500497
	 0.0534532764,	 0.0947409488
	 0.08630249,	 0.0802716394
	 0.137205547,	-0.0747214263
	 0.10198333,	-0.134357668
	 0.0741075053,	-0.158143681
END
BEGIN
	 0.00208231044,	 0.0106232769
	 0.0106592959,	 0.0220170819
	 0.0327480724,	 0.027222307
	 0.050263146,	-0.00765443236
	 0.0393706344,	-0.0190886467
	 0.0118899675,	 0.0245977069
	 0.0252137212,	 0.0280532257
	 0.0359489283,	-0.0109998711
	 0.0190057013,	-0.0150431535
	 0.0107107062,	-0.0119934499
END
BEGIN
	 0.978851008,	-0.19635249
	 0.89205226,	-0.443654032
	 0.617693614,	-0.776997597
	-0.197198269,	-0.966279925
	-0.48561971,	-0.856405683
	-0.84350001,	 0.486592293
	-0.648785126,	 0.72180132
	 0.480000842,	 0.829454595
	 0.772976984,	 0.560970891
	 0.871127634,	 0.387510918
END
BEGIN
	-0.0020589464,	-0.00898617768
	-0.00945601557,	-0.0172163768
	-0.0269786847,	-0.0198669429
	-0.0423992722,	 0.00889698563
	-0.0348322722,	 0.0193877257
	-0.00889245785,	-0.0168191688
	-0.0225853944,	-0.0224517931
	-0.0427021199,	 0.0201475934
	-0.0238487614,	 0.0267736722
	-0.0139870528,	 0.0239054621
END
BEGIN
	-0.00205894845,	-0.00898617736
	-0.00945602359,	-0.0172163727
	-0.026978693,	-0.0198669321
	-0.0423992931,	 0.00889690698
	-0.0348323335,	 0.019387614
	-0.00889225476,	-0.0168192906
	-0.0225852153,	-0.0224519886
	-0.0427021037,	 0.0201477529
	-0.0238487909,	 0.0267736284
	-0.0139870813,	 0.0239054542
END
BEGIN
	 0.978851008,	-0.19635249
	 0.89205226,	-0.443654032
	 0.617693615,	-0.776997596
	-0.197198276,	-0.966279923
	-0.485619709,	-0.856405683
	-0.843500011,	 0.48659229
	-0.648785129,	 0.721801317
	 0.480000888,	 0.829454566
	 0.772976966,	 0.560970917
	 0.871127621,	 0.387510949
END
BEGIN
	 0.00208231028,	 0.0106232769
	 0.0106592952,	 0.0220170824
	 0.0327480714,	 0.027222309
	 0.0502631425,	-0.00765442761
	 0.0393706313,	-0.0190886357
	 0.0118899591,	 0.0245976826
	 0.0252136892,	 0.0280532152
	 0.0359489536,	-0.0109998696
	 0.0190056958,	-0.0150431452
	 0.0107106901,	-0.0119934497
END
BEGIN
	-0.000963699833,	-0.00535038549
	-0.00528736671,	-0.0117435013
	-0.0193487844,	-0.0171903804
	-0.0529530533,	 0.00875060016
	-0.0560942573,	 0.0300500497
	 0.0534532764,	 0.0947409488
	 0.08630249,	 0.0802716394
	 0.137205547,	-0.0747214263
	 0.10198333,	-0.134357668
	 0.0741075053,	-0.158143681
END
BEGIN
	 0.978851008,	-0.19635249
	 0.89205226,	-0.443654032
	 0.617693615,	-0.776997596
	-0.197198276,	-0.966279923
	-0.485619709,	-0.856405683
	-0.843500011,	 0.48659229
	-0.648785129,	 0.721801317
	 0.480000888,	 0.829454566
	 0.772976966,	 0.560970917
	 0.871127621,	 0.387510949
END
BEGIN
	-0.00205894449,	-0.00898617678
	-0.00945599874,	-0.0172163637
	-0.0269785348,	-0.0198669236
	-0.042398814,	 0.00889622764
	-0.0348321292,	 0.019386509
	-0.00889273489,	-0.0168173797
	-0.0225840841,	-0.0224498102
	-0.0427001867,	 0.0201429272
	-0.0238507602,	 0.0267683016
	-0.013991014,	 0.0239011734
END
BEGIN
	-0.000963580324,	-0.0053504111
	-0.00528667486,	-0.0117438547
	-0.0193469307,	-0.0171927599
	-0.0529555225,	 0.00873900703
	-0.0561025204,	 0.0300357701
	 0.0534091245,	 0.0947670422
	 0.0862624955,	 0.080317016
	 0.137258743,	-0.0746307696
	 0.102083115,	-0.134286113
	 0.0742282179,	-0.158090838
END
BEGIN
	 0.00208231044,	 0.0106232769
	 0.0106592959,	 0.0220170819
	 0.0327480724,	 0.027222307
	 0.050263146,	-0.00765443236
	 0.0393706344,	-0.0190886467
	 0.0118899675,	 0.0245977069
	 0.0252137212,	 0.0280532257
	 0.0359489283,	-0.0109998711
	 0.0190057013,	-0.0150431535
	 0.0107107062,	-0.0119934499
END
BEGIN
	 0.00208231028,	 0.0106232769
	 0.0106592952,	 0.0220170824
	 0.0327480714,	 0.027222309
	 0.0502631425,	-0.00765442761
	 0.0393706313,	-0.0190886357
	 0.0118899591,	 0.0245976826
	 0.0252136892,	 0.0280532152
	 0.0359489536,	-0.0109998696
	 0.0190056958,	-0.0150431452
	 0.0107106901,	-0.0119934497
END
BEGIN
	-0.000963580324,	-0.0053504111
	-0.00528667486,	-0.0117438547
	-0.0193469307,	-0.0171927599
	-0.0529555225,	 0.00873900703
	-0.0561025204,	 0.0300357701
	 0.0534091245,	 0.0947670422
	 0.0862624955,	 0.080317016
	 0.137258743,	-0.0746307696
	 0.102083115,	-0.134286113
	 0.0742282179,	-0.158090838
END
BEGIN
	-0.00205894651,	-0.00898617625
	-0.00945600681,	-0.0172163597
	-0.0269785437,	-0.0198669132
	-0.0423988281,	 0.00889614678
	-0.0348321936,	 0.0193863991
	-0.00889253211,	-0.0168175018
	-0.0225839042,	-0.0224500046
	-0.0427000485,	 0.0201430125
	-0.0238508088,	 0.0267682833
	-0.0139910375,	 0.0239011601
END
BEGIN
	 0.978851008,	-0.19635249
	 0.89205226,	-0.443654032
	 0.617693614,	-0.776997597
	-0.197198269,	-0.966279925
	-0.48561971,	-0.856405683
	-0.84350001,	 0.486592293
	-0.648785126,	 0.72180132
	 0.480000842,	 0.829454595
	 0.772976984,	 0.560970891
	 0.871127634,	 0.387510918
END
BEGIN
	-0.000963699833,	-0.00535038549
	-0.00528736671,	-0.0117435013
	-0.0193487844,	-0.0171903804
	-0.0529530533,	 0.00875060016
	-0.0560942573,	 0.0300500497
	 0.0534532764,	 0.0947409488
	 0.08630249,	 0.0802716394
	 0.137205547,	-0.0747214263
	 0.10198333,	-0.134357668
	 0.0741075053,	-0.158143681
END
BEGIN
	 0.00208231044,	 0.0106232769
	 0.0106592959,	 0.0220170819
	 0.0327480724,	 0.027222307
	 0.050263146,	-0.00765443236
	 0.0393706344,	-0.0190886467
	 0.0118899675,	 0.0245977069
	 0.0252137212,	 0.0280532257
	 0.0359489283,	-0.0109998711
	 0.0190057013,	-0.0150431535
	 0.0107107062,	-0.0119934499
END
BEGIN
	 0.978851008,	-0.19635249
	 0.89205226,	-0.443654032
	 0.617693614,	-0.776997597
	-0.197198269,	-0.966279925
	-0.48561971,	-0.856405683
	-0.84350001,	 0.486592293
	-0.648785126,	 0.72180132
	 0.480000842,	 0.829454595
	 0.772976984,	 0.560970891
	 0.871127634,	 0.387510918
END
BEGIN
	-0.0020589464,	-0.00898617768
	-0.00945601557,	-0.0172163768
	-0.0269786847,	-0.0198669429
	-0.0423992722,	 0.00889698563
	-0.0348322722,	 0.0193877257
	-0.00889245785,	-0.0168191688
	-0.0225853944,	-0.0224517931
	-0.0427021199,	 0.0201475934
	-0.0238487614,	 0.0267736722
	-0.0139870528,	 0.0239054621
END
BEGIN
	-0.000130129064,	 0.000249404654
	 0.00021128447,	 0.0018742144
	 0.000729395664,	 0.00189787716
	-0.00338156959,	 0.001125633
	-0.00513586642,	 0.00304146223
	 0.00329117974,	 0.00214702959
	 0.00109875928,	-0.00234488965
	-0.0158509078,	 0.00605954608
	-0.0113108093,	 0.012924334
	-0.00722593567,	 0.0143685843
END
BEGIN
	 0.978837674,	-0.19666874
	 0.89155985,	-0.445104561
	 0.616325285,	-0.778795437
	-0.200594655,	-0.966558242
	-0.489189444,	-0.855340072
	-0.841956705,	 0.489314848
	-0.646836605,	 0.7240052
	 0.484026394,	 0.828438061
	 0.776056397,	 0.557871698
	 0.873232193,	 0.383723298
END
BEGIN
	 0.00218558453,	 0.0108608665
	 0.011176567,	 0.0223500762
	 0.0339259321,	 0.0268666344
	 0.0492919546,	-0.00981725312
	 0.0370113598,	-0.0204235944
	 0.0158685598,	 0.0263867324
	 0.029855206,	 0.0271201542
	 0.0306066731,	-0.0136947313
	 0.0131385729,	-0.0126930111
	 0.00622328616,	-0.00730373607
END
BEGIN
	-0.00116156552,	-0.00580720669
	-0.00620545869,	-0.0123645676
	-0.0211763172,	-0.0166468401
	-0.0520536635,	 0.0108268572
	-0.0544698488,	 0.0311265848
	 0.0547972083,	 0.0950829569
	 0.0881028878,	 0.0798169407
	 0.135913457,	-0.0761514898
	 0.100642434,	-0.1347628
	 0.0729961835,	-0.158291674
END
BEGIN
	 0.978837674,	-0.19666874
	 0.89155985,	-0.445104561
	 0.616325285,	-0.778795437
	-0.200594655,	-0.966558242
	-0.489189444,	-0.855340072
	-0.841956705,	 0.489314848
	-0.646836605,	 0.7240052
	 0.484026394,	 0.828438061
	 0.776056397,	 0.557871698
	 0.873232193,	 0.383723298
END
BEGIN
	-0.000130125091,	 0.000249405262
	 0.000211309717,	 0.00187422363
	 0.000729557298,	 0.00189788437
	-0.00338110451,	 0.00112492766
	-0.00513570516,	 0.00304033632
	 0.00329091204,	 0.00214903623
	 0.00110018034,	-0.00234277061
	-0.0158495965,	 0.00605443326
	-0.0113135495,	 0.012919332
	-0.00723049841,	 0.0143649794
END
BEGIN
	-0.00116144601,	-0.00580723234
	-0.00620476724,	-0.0123649221
	-0.0211744676,	-0.0166492251
	-0.0520561743,	 0.0108152597
	-0.054478174,	 0.0311123224
	 0.0547531433,	 0.0951091949
	 0.0880630179,	 0.0798624533
	 0.135967116,	-0.0760609365
	 0.100742647,	-0.134691659
	 0.0731172128,	-0.158239385
END
BEGIN
	 0.00218558469,	 0.0108608665
	 0.0111765677,	 0.0223500757
	 0.0339259331,	 0.0268666324
	 0.049291958,	-0.00981725804
	 0.0370113626,	-0.0204236055
	 0.0158685685,	 0.0263867568
	 0.0298552385,	 0.0271201645
	 0.030606648,	-0.0136947326
	 0.0131385783,	-0.0126930194
	 0.00622330225,	-0.00730373634
END
BEGIN
	 0.00218558453,	 0.0108608665
	 0.011176567,	 0.0223500762
	 0.0339259321,	 0.0268666344
	 0.0492919546,	-0.00981725312
	 0.0370113598,	-0.0204235944
	 0.0158685598,	 0.0263867324
	 0.029855206,	 0.0271201542
	 0.0306066731,	-0.0136947313
	 0.0131385729,	-0.0126930111
	 0.00622328616,	-0.00730373607
END
BEGIN
	-0.00116144601,	-0.00580723234
	-0.00620476724,	-0.0123649221
	-0.0211744676,	-0.0166492251
	-0.0520561743,	 0.0108152597
	-0.054478174,	 0.0311123224
	 0.0547531433,	 0.0951091949
	 0.0880630179,	 0.0798624533
	 0.135967116,	-0.0760609365
	 0.100742647,	-0.134691659
	 0.0731172128,	-0.158239385
END
BEGIN
	-0.000130127111,	 0.000249405792
	 0.000211301652,	 0.00187422764
	 0.00072954848,	 0.00189789478
	-0.00338111873,	 0.00112484701
	-0.00513577005,	 0.00304022653
	 0.00329111453,	 0.00214891354
	 0.0011003599,	-0.00234296565
	-0.0158494559,	 0.00605451888
	-0.0113135993,	 0.0129193145
	-0.00723052279,	 0.0143649671
END
BEGIN
	 0.978837674,	-0.19666874
	 0.89155985,	-0.445104561
	 0.616325284,	-0.778795438
	-0.200594648,	-0.966558244
	-0.489189445,	-0.855340072
	-0.841956704,	 0.489314851
	-0.646836601,	 0.724005203
	 0.484026346,	 0.828438089
	 0.776056415,	 0.557871671
	 0.873232206,	 0.383723267
END
BEGIN
	-0.00116156552,	-0.00580720669
	-0.00620545869,	-0.0123645676
	-0.0211763172,	-0.0166468401
	-0.0520536635,	 0.0108268572
	-0.0544698488,	 0.0311265848
	 0.0547972083,	 0.0950829569
	 0.0881028878,	 0.0798169407
	 0.135913457,	-0.0761514898
	 0.100642434,	-0.1347628
	 0.0729961835,	-0.158291674
END
BEGIN
	 0.00218558469,	 0.0108608665
	 0.0111765677,	 0.0223500757
	 0.0339259331,	 0.0268666324
	 0.049291958,	-0.00981725804
	 0.0370113626,	-0.0204236055
	 0.0158685685,	 0.0263867568
	 0.0298552385,	 0.0271201645
	 0.030606648,	-0.0136947326
	 0.0131385783,	-0.0126930194
	 0.00622330225,	-0.00730373634
END
BEGIN
	 0.978837674,	-0.19666874
	 0.89155985,	-0.445104561
	 0.616325284,	-0.778795438
	-0.200594648,	-0.966558244
	-0.489189445,	-0.855340072
	-0.841956704,	 0.489314851
	-0.646836601,	 0.724005203
	 0.484026346,	 0.828438089
	 0.776056415,	 0.557871671
	 0.873232206,	 0.383723267
END
BEGIN
	-0.000130127014,	 0.000249404333
	 0.000211292485,	 0.00187421029
	 0.000729404,	 0.00189786632
	-0.00338154825,	 0.00112571192
	-0.00513580467,	 0.00304157377
	 0.00329097714,	 0.00214715212
	 0.00109858085,	-0.00234469356
	-0.0158509228,	 0.00605938728
	-0.0113107807,	 0.0129243782
	-0.00722590794,	 0.014368593
END
BEGIN
	 0.0332749961,	 3.9579468
	 0.0653085057,	 9.23710534
	 0.114487091,	 18.0147154
	 0.207686589,	 35.5412716
	 0.240470595,	 41.8475501
	 0.401796684,	 73.3898254
	 0.433798505,	 79.7034968
	 0.56149079,	 104.987391
	 0.60403076,	 113.427226
	 0.625307516,	 117.649602
END
BEGIN
	 0.0332749961,	 3.9579468
	 0.0653085057,	 9.23710534
	 0.114487091,	 18.0147154
	 0.207686589,	 35.5412716
	 0.240470595,	 41.8475501
	 0.401796684,	 73.3898254
	 0.433798505,	 79.7034968
	 0.56149079,	 104.987391
	 0.60403076,	 113.427226
	 0.625307516,	 117.649602
END
BEGIN
	 0.0332749961,	 3.9579468
	 0.0653085057,	 9.23710534
	 0.114487091,	 18.0147154
	 0.207686589,	 35.5412716
	 0.240470595,	 41.8475501
	 0.401796684,	 73.3898254
	 0.433798505,	 79.7034968
	 0.56149079,	 104.987391
	 0.60403076,	 113.427226
	 0.625307516,	 117.649602
END
BEGIN
	 0.0332749961,	 3.9579468
	 0.0653085057,	 9.23710534
	 0.114487091,	 18.0147154
	 0.207686589,	 35.5412716
	 0.240470595,	 41.8475501
	 0.401796684,	 73.3898254
	 0.433798505,	 79.7034968
	 0.56149079,	 104.987391
	 0.60403076,	 113.427226
	 0.625307516,	 117.649602
END
BEGIN
	 47.77731799 ,	 0.025020971199999999 
	 47.826741699999999 ,	 0.091091341519999994 
	 47.881672860000002 ,	 0.1271802655 
	 47.946767020000003 ,	 0.15393696940000001 
	 47.963571139999999 ,	 0.15923499720000001 
	 48.026267150000002 ,	 0.1750098423 
	 48.03670769 ,	 0.17706727359999999 
	 48.075941989999997 ,	 0.1836073929 
	 48.08878662 ,	 0.18536947600000001 
	 48.095248220000002 ,	 0.18619402970000001 
END
BEGIN
	 47.77731799 ,	 0.025020971199999999 
	 47.826741699999999 ,	 0.091091341519999994 
	 47.881672860000002 ,	 0.1271802655 
	 47.946767020000003 ,	 0.15393696940000001 
	 47.963571139999999 ,	 0.15923499720000001 
	 48.026267150000002 ,	 0.1750098423 
	 48.03670769 ,	 0.17706727359999999 
	 48.075941989999997 ,	 0.1836073929 
	 48.08878662 ,	 0.18536947600000001 
	 48.095248220000002 ,	 0.18619402970000001 
END
BEGIN
	 47.77731799 ,	 0.025020971199999999 
	 47.826741699999999 ,	 0.091091341519999994 
	 47.881672860000002 ,	 0.1271802655 
	 47.946767020000003 ,	 0.15393696940000001 
	 47.963571139999999 ,	 0.15923499720000001 
	 48.026267150000002 ,	 0.1750098423 
	 48.03670769 ,	 0.17706727359999999 
	 48.075941989999997 ,	 0.1836073929 
	 48.08878662 ,	 0.18536947600000001 
	 48.095248220000002 ,	 0.18619402970000001 
END
BEGIN
	 47.77731799 ,	 0.025020971199999999 
	 47.826741699999999 ,	 0.091091341519999994 
	 47.881672860000002 ,	 0.1271802655 
	 47.946767020000003 ,	 0.15393696940000001 
	 47.963571139999999 ,	 0.15923499720000001 
	 48.026267150000002 ,	 0.1750098423 
	 48.03670769 ,	 0.17706727359999999 
	 48.075941989999997 ,	 0.1836073929 
	 48.08878662 ,	 0.18536947600000001 
	 48.095248220000002 ,	 0.18619402970000001 
END
BEGIN
	 50 ,	 0 
	 50 ,	 0 
	 50 ,	 0 
	 50 ,	 0 
	 50 ,	 0 
	 50 ,	 0 
	 50 ,	 0 
	 50 ,	 0 
	 50 ,	 0 
	 50 ,	 0 
END
BEGIN
	 50 ,	 0 
	 50 ,	 0 
	 50 ,	 0 
	 50 ,	 0 
	 50 ,	 0 
	 50 ,	 0 
	 50 ,	 0 
	 50 ,	 0 
	 50 ,	 0 
	 50 ,	 0 
END
BEGIN
	 50 ,	 0 
	 50 ,	 0 
	 50 ,	 0 
	 50 ,	 0 
	 50 ,	 0 
	 50 ,	 0 
	 50 ,	 0 
	 50 ,	 0 
	 50 ,	 0 
	 50 ,	 0 
END
BEGIN
	 50 ,	 0 
	 50 ,	 0 
	 50 ,	 0 
	 50 ,	 0 
	 50 ,	 0 
	 50 ,	 0 
	 50 ,	 0 
	 50 ,	 0 
	 50 ,	 0 
	 50 ,	 0 
END
