CITIFILE A.01.01
#Momentum: B.09.20.456 (*) 372.600 Nov 12 2011 
#Momentum Date and Time: Wed Oct 10 20:37:42 2012

NAME Momentum.SP

#  mode: MW    reference: S_50

CONSTANT NBR_OF_PORTS 2

CONSTANT NORMALIZATION 1

VAR freq MAG 229

DATA S[1,1] RI
DATA S[1,2] RI
DATA S[2,1] RI
DATA S[2,2] RI
DATA S_50[1,1] RI
DATA S_50[1,2] RI
DATA S_50[2,1] RI
DATA S_50[2,2] RI
DATA S_Z0[1,1] RI
DATA S_Z0[1,2] RI
DATA S_Z0[2,1] RI
DATA S_Z0[2,2] RI
DATA Z0[1] RI
DATA Z0[2] RI
DATA PORTZ[1] RI
DATA PORTZ[2] RI

VAR_LIST_BEGIN
	 100000000
	 115104166.7
	 130208333.3
	 145312500
	 160416666.7
	 175520833.4
	 190625000.1
	 205729166.7
	 220833333.4
	 235937500.1
	 251041666.8
	 266145833.4
	 281250000.1
	 288802083.4
	 296354166.8
	 303906250.1
	 311458333.5
	 319010416.8
	 326562500.1
	 334114583.5
	 341666666.8
	 356770833.5
	 371875000.1
	 386979166.8
	 402083333.5
	 417187500.1
	 432291666.8
	 447395833.5
	 462500000.1
	 477604166.8
	 492708333.5
	 507812500.2
	 522916666.8
	 538020833.5
	 553125000.2
	 568229166.8
	 583333333.5
	 598437500.2
	 613541666.8
	 628645833.5
	 643750000.2
	 658854166.9
	 673958333.5
	 689062500.2
	 704166666.9
	 719270833.5
	 734375000.2
	 749479166.9
	 764583333.6
	 779687500.2
	 794791666.9
	 809895833.6
	 825000000.3
	 840104166.9
	 855208333.6
	 870312500.3
	 885416666.9
	 900520833.6
	 915625000.3
	 930729167
	 945833333.6
	 960937500.3
	 976041667
	 991145833.6
	 1006250000
	 1021354167
	 1036458334
	 1051562500
	 1066666667
	 1081770834
	 1096875000
	 1111979167
	 1127083334
	 1142187500
	 1157291667
	 1172395834
	 1187500000
	 1202604167
	 1217708334
	 1232812500
	 1247916667
	 1263020834
	 1278125000
	 1293229167
	 1308333334
	 1323437500
	 1338541667
	 1353645833
	 1368750000
	 1383854167
	 1398958333
	 1414062500
	 1429166667
	 1444270833
	 1459375000
	 1474479167
	 1489583333
	 1504687500
	 1519791667
	 1534895833
	 1550000000
	 1565104167
	 1580208333
	 1595312500
	 1610416667
	 1625520833
	 1640625000
	 1655729167
	 1670833333
	 1685937500
	 1701041667
	 1716145833
	 1731250000
	 1746354167
	 1761458333
	 1776562500
	 1791666667
	 1806770833
	 1821875000
	 1836979166
	 1852083333
	 1867187500
	 1882291666
	 1897395833
	 1912500000
	 1927604166
	 1942708333
	 1957812500
	 1972916666
	 1988020833
	 2003125000
	 2018229166
	 2033333333
	 2048437500
	 2063541666
	 2078645833
	 2093750000
	 2108854166
	 2123958333
	 2139062500
	 2154166667
	 2169270833
	 2184375000
	 2199479167
	 2214583333
	 2222135417
	 2229687500
	 2237239583
	 2244791667
	 2252343750
	 2259895833
	 2267447917
	 2275000000
	 2282552083
	 2290104167
	 2297656250
	 2305208333
	 2312760417
	 2320312500
	 2327864583
	 2335416667
	 2342968750
	 2350520833
	 2358072917
	 2365625000
	 2373177083
	 2380729167
	 2388281250
	 2395833334
	 2403385417
	 2410937500
	 2418489584
	 2426041667
	 2433593750
	 2441145834
	 2448697917
	 2456250000
	 2471354167
	 2486458334
	 2501562500
	 2516666667
	 2531770834
	 2546875000
	 2561979167
	 2577083334
	 2584635417
	 2592187500
	 2599739584
	 2607291667
	 2614843750
	 2622395834
	 2629947917
	 2637500000
	 2645052084
	 2652604167
	 2660156250
	 2667708334
	 2675260417
	 2682812500
	 2690364584
	 2697916667
	 2705468750
	 2713020834
	 2720572917
	 2728125000
	 2735677084
	 2743229167
	 2750781250
	 2758333334
	 2765885417
	 2773437500
	 2780989583
	 2788541667
	 2796093750
	 2803645833
	 2811197917
	 2818750000
	 2833854167
	 2848958333
	 2864062500
	 2879166667
	 2894270833
	 2909375000
	 2924479167
	 2939583333
	 2954687500
	 2969791667
	 2984895833
	 3000000000
VAR_LIST_END

BEGIN
	 0.0012296,	 0.0068352
	 0.0016205,	 0.0079667
	 0.0020807,	 0.0090663
	 0.0026057,	 0.010134
	 0.0031923,	 0.01117
	 0.0038382,	 0.012172
	 0.0045415,	 0.013139
	 0.0053003,	 0.01407
	 0.0061132,	 0.014962
	 0.0069783,	 0.015813
	 0.0078939,	 0.01662
	 0.0088582,	 0.017383
	 0.0098692,	 0.018097
	 0.010392,	 0.018435
	 0.010925,	 0.01876
	 0.011469,	 0.019073
	 0.012023,	 0.019371
	 0.012587,	 0.019656
	 0.013161,	 0.019927
	 0.013744,	 0.020184
	 0.014336,	 0.020426
	 0.015547,	 0.020866
	 0.016789,	 0.021243
	 0.01806,	 0.021558
	 0.019357,	 0.021807
	 0.020676,	 0.02199
	 0.022014,	 0.022104
	 0.023368,	 0.022148
	 0.024734,	 0.022122
	 0.026108,	 0.022024
	 0.027486,	 0.021854
	 0.028864,	 0.021611
	 0.030238,	 0.021296
	 0.031605,	 0.020907
	 0.032961,	 0.020445
	 0.034301,	 0.019912
	 0.035621,	 0.019306
	 0.036918,	 0.018631
	 0.038187,	 0.017885
	 0.039426,	 0.017073
	 0.040629,	 0.016193
	 0.041794,	 0.01525
	 0.042918,	 0.014244
	 0.043995,	 0.013179
	 0.045025,	 0.012056
	 0.046003,	 0.010878
	 0.046926,	 0.0096478
	 0.047792,	 0.0083688
	 0.048599,	 0.0070437
	 0.049344,	 0.0056758
	 0.050024,	 0.0042684
	 0.050638,	 0.0028249
	 0.051185,	 0.0013489
	 0.051661,	-0.00015617
	 0.052067,	-0.0016866
	 0.052401,	-0.0032388
	 0.052661,	-0.0048089
	 0.052847,	-0.0063933
	 0.052959,	-0.007988
	 0.052995,	-0.0095895
	 0.052956,	-0.011194
	 0.052841,	-0.012797
	 0.052651,	-0.014396
	 0.052386,	-0.015985
	 0.052046,	-0.017563
	 0.051632,	-0.019125
	 0.051144,	-0.020666
	 0.050584,	-0.022185
	 0.049953,	-0.023676
	 0.049251,	-0.025136
	 0.048482,	-0.026562
	 0.047645,	-0.027951
	 0.046743,	-0.029298
	 0.045778,	-0.0306
	 0.044752,	-0.031855
	 0.043668,	-0.033059
	 0.042527,	-0.034209
	 0.041333,	-0.035302
	 0.040087,	-0.036335
	 0.038794,	-0.037305
	 0.037457,	-0.03821
	 0.036078,	-0.039047
	 0.03466,	-0.039814
	 0.033209,	-0.040508
	 0.031726,	-0.041129
	 0.030217,	-0.041673
	 0.028685,	-0.042139
	 0.027133,	-0.042526
	 0.025567,	-0.042832
	 0.023991,	-0.043058
	 0.022408,	-0.0432
	 0.020824,	-0.043261
	 0.019243,	-0.043238
	 0.017669,	-0.043131
	 0.016107,	-0.042943
	 0.014561,	-0.042671
	 0.013037,	-0.042318
	 0.011538,	-0.041885
	 0.010069,	-0.041372
	 0.008634,	-0.040781
	 0.0072382,	-0.040114
	 0.0058855,	-0.039374
	 0.0045799,	-0.038562
	 0.0033256,	-0.03768
	 0.0021262,	-0.036733
	 0.00098569,	-0.035722
	-9.2603e-005,	-0.034652
	-0.0011053,	-0.033525
	-0.0020493,	-0.032345
	-0.0029217,	-0.031116
	-0.0037197,	-0.029842
	-0.004441,	-0.028527
	-0.0050834,	-0.027175
	-0.0056448,	-0.025791
	-0.0061237,	-0.024379
	-0.0065184,	-0.022944
	-0.0068279,	-0.02149
	-0.0070512,	-0.020022
	-0.0071877,	-0.018544
	-0.0072368,	-0.017061
	-0.0071984,	-0.015579
	-0.0070727,	-0.014101
	-0.0068598,	-0.012632
	-0.0065605,	-0.011177
	-0.0061754,	-0.009741
	-0.0057057,	-0.0083275
	-0.0051525,	-0.0069413
	-0.0045172,	-0.0055869
	-0.0038016,	-0.0042685
	-0.0030076,	-0.0029902
	-0.0021371,	-0.0017561
	-0.0011924,	-0.00057022
	-0.000176,	 0.0005636
	 0.00090956,	 0.0016416
	 0.0020615,	 0.0026602
	 0.0032768,	 0.0036159
	 0.0045525,	 0.0045054
	 0.0058852,	 0.0053253
	 0.0072715,	 0.0060727
	 0.0087079,	 0.0067445
	 0.010191,	 0.007338
	 0.011716,	 0.0078506
	 0.013279,	 0.0082798
	 0.014877,	 0.0086232
	 0.016505,	 0.0088788
	 0.017329,	 0.008973
	 0.018158,	 0.0090445
	 0.018993,	 0.0090932
	 0.019832,	 0.0091188
	 0.020676,	 0.0091211
	 0.021523,	 0.0090999
	 0.022373,	 0.0090552
	 0.023225,	 0.0089867
	 0.024078,	 0.0088943
	 0.024933,	 0.0087779
	 0.025788,	 0.0086375
	 0.026643,	 0.0084728
	 0.027497,	 0.0082839
	 0.028349,	 0.0080707
	 0.029199,	 0.0078332
	 0.030046,	 0.0075714
	 0.030889,	 0.0072852
	 0.031728,	 0.0069747
	 0.032562,	 0.0066399
	 0.033391,	 0.0062809
	 0.034213,	 0.0058977
	 0.035028,	 0.0054905
	 0.035835,	 0.0050594
	 0.036634,	 0.0046044
	 0.037424,	 0.0041259
	 0.038204,	 0.0036239
	 0.038974,	 0.0030986
	 0.039732,	 0.0025504
	 0.040479,	 0.0019794
	 0.041213,	 0.0013859
	 0.041934,	 0.00077021
	 0.04264,	 0.00013266
	 0.04401,	-0.0012067
	 0.045315,	-0.0026291
	 0.046551,	-0.0041311
	 0.047714,	-0.0057089
	 0.048798,	-0.0073585
	 0.049798,	-0.0090751
	 0.050711,	-0.010854
	 0.051533,	-0.01269
	 0.051908,	-0.013628
	 0.052259,	-0.014577
	 0.052585,	-0.015538
	 0.052887,	-0.01651
	 0.053163,	-0.017492
	 0.053413,	-0.018483
	 0.053638,	-0.019482
	 0.053836,	-0.020488
	 0.054008,	-0.021501
	 0.054154,	-0.02252
	 0.054272,	-0.023544
	 0.054364,	-0.024572
	 0.054428,	-0.025604
	 0.054466,	-0.026637
	 0.054476,	-0.027673
	 0.05446,	-0.028709
	 0.054416,	-0.029744
	 0.054345,	-0.030779
	 0.054247,	-0.031812
	 0.054123,	-0.032842
	 0.053971,	-0.033869
	 0.053793,	-0.034891
	 0.053589,	-0.035907
	 0.053359,	-0.036918
	 0.053104,	-0.037922
	 0.052822,	-0.038918
	 0.052516,	-0.039906
	 0.052185,	-0.040884
	 0.05183,	-0.041852
	 0.051451,	-0.04281
	 0.051049,	-0.043756
	 0.050623,	-0.044691
	 0.049706,	-0.04652
	 0.048703,	-0.048294
	 0.04762,	-0.050008
	 0.04646,	-0.051656
	 0.04523,	-0.053237
	 0.043934,	-0.054746
	 0.042578,	-0.05618
	 0.041168,	-0.057538
	 0.039708,	-0.058817
	 0.038205,	-0.060015
	 0.036664,	-0.061133
	 0.035091,	-0.06217
END
BEGIN
	 0.97931,	-0.19444
	 0.97301,	-0.22308
	 0.96588,	-0.25153
	 0.9579,	-0.27975
	 0.9491,	-0.30771
	 0.93948,	-0.33538
	 0.92905,	-0.36275
	 0.91783,	-0.38979
	 0.90582,	-0.41647
	 0.89304,	-0.44278
	 0.87949,	-0.46869
	 0.8652,	-0.49418
	 0.85017,	-0.51923
	 0.84239,	-0.53158
	 0.83442,	-0.54382
	 0.82628,	-0.55593
	 0.81797,	-0.56792
	 0.80948,	-0.57979
	 0.80082,	-0.59153
	 0.79199,	-0.60314
	 0.78299,	-0.61462
	 0.7645,	-0.63716
	 0.74537,	-0.65915
	 0.7256,	-0.68057
	 0.70522,	-0.70139
	 0.68425,	-0.72159
	 0.6627,	-0.74117
	 0.6406,	-0.76011
	 0.61795,	-0.77839
	 0.59479,	-0.79599
	 0.57112,	-0.8129
	 0.54698,	-0.8291
	 0.52238,	-0.84459
	 0.49734,	-0.85935
	 0.47189,	-0.87337
	 0.44604,	-0.88663
	 0.41983,	-0.89913
	 0.39326,	-0.91085
	 0.36637,	-0.92179
	 0.33917,	-0.93193
	 0.3117,	-0.94127
	 0.28397,	-0.9498
	 0.25601,	-0.95752
	 0.22785,	-0.96441
	 0.1995,	-0.97047
	 0.17099,	-0.9757
	 0.14234,	-0.9801
	 0.11359,	-0.98365
	 0.084757,	-0.98636
	 0.055857,	-0.98822
	 0.026921,	-0.98924
	-0.0020258,	-0.98941
	-0.03096,	-0.98874
	-0.059855,	-0.98722
	-0.088689,	-0.98485
	-0.11743,	-0.98165
	-0.14606,	-0.97761
	-0.17456,	-0.97273
	-0.2029,	-0.96703
	-0.23106,	-0.9605
	-0.259,	-0.95315
	-0.28672,	-0.94499
	-0.31418,	-0.93602
	-0.34136,	-0.92626
	-0.36824,	-0.91571
	-0.39479,	-0.90438
	-0.421,	-0.89229
	-0.44684,	-0.87943
	-0.47229,	-0.86583
	-0.49733,	-0.85149
	-0.52194,	-0.83643
	-0.54609,	-0.82066
	-0.56976,	-0.80419
	-0.59295,	-0.78704
	-0.61562,	-0.76923
	-0.63775,	-0.75076
	-0.65934,	-0.73165
	-0.68035,	-0.71193
	-0.70078,	-0.6916
	-0.7206,	-0.67069
	-0.7398,	-0.64921
	-0.75836,	-0.62718
	-0.77627,	-0.60461
	-0.79352,	-0.58154
	-0.81007,	-0.55798
	-0.82593,	-0.53394
	-0.84108,	-0.50945
	-0.85551,	-0.48454
	-0.8692,	-0.45921
	-0.88214,	-0.4335
	-0.89433,	-0.40742
	-0.90574,	-0.38099
	-0.91638,	-0.35425
	-0.92623,	-0.32721
	-0.93529,	-0.29989
	-0.94354,	-0.27232
	-0.95098,	-0.24453
	-0.9576,	-0.21653
	-0.9634,	-0.18835
	-0.96837,	-0.16001
	-0.9725,	-0.13154
	-0.97581,	-0.10297
	-0.97827,	-0.074313
	-0.97989,	-0.045597
	-0.98067,	-0.016846
	-0.98061,	 0.011913
	-0.9797,	 0.040656
	-0.97795,	 0.069359
	-0.97536,	 0.097996
	-0.97194,	 0.12654
	-0.96767,	 0.15497
	-0.96257,	 0.18326
	-0.95665,	 0.21139
	-0.9499,	 0.23934
	-0.94233,	 0.26707
	-0.93396,	 0.29456
	-0.92478,	 0.32179
	-0.9148,	 0.34874
	-0.90404,	 0.37538
	-0.8925,	 0.4017
	-0.8802,	 0.42766
	-0.86713,	 0.45324
	-0.85333,	 0.47843
	-0.83878,	 0.50319
	-0.82352,	 0.52752
	-0.80755,	 0.55138
	-0.79089,	 0.57476
	-0.77355,	 0.59764
	-0.75554,	 0.61999
	-0.73689,	 0.6418
	-0.71761,	 0.66305
	-0.69771,	 0.68372
	-0.67722,	 0.70379
	-0.65614,	 0.72325
	-0.63451,	 0.74207
	-0.61234,	 0.76025
	-0.58964,	 0.77776
	-0.56644,	 0.79459
	-0.54277,	 0.81073
	-0.51863,	 0.82616
	-0.49405,	 0.84087
	-0.46906,	 0.85485
	-0.44367,	 0.86808
	-0.41791,	 0.88056
	-0.3918,	 0.89227
	-0.37862,	 0.89783
	-0.36537,	 0.9032
	-0.35203,	 0.90837
	-0.33863,	 0.91335
	-0.32515,	 0.91812
	-0.31161,	 0.9227
	-0.298,	 0.92708
	-0.28433,	 0.93125
	-0.2706,	 0.93522
	-0.25682,	 0.93899
	-0.24299,	 0.94256
	-0.22911,	 0.94592
	-0.21518,	 0.94908
	-0.20121,	 0.95203
	-0.1872,	 0.95477
	-0.17315,	 0.95731
	-0.15907,	 0.95964
	-0.14496,	 0.96176
	-0.13082,	 0.96368
	-0.11665,	 0.96538
	-0.10247,	 0.96688
	-0.088273,	 0.96817
	-0.074055,	 0.96925
	-0.059826,	 0.97012
	-0.045588,	 0.97078
	-0.031344,	 0.97123
	-0.017097,	 0.97148
	-0.002851,	 0.97151
	 0.011391,	 0.97133
	 0.025627,	 0.97095
	 0.039853,	 0.97036
	 0.054066,	 0.96955
	 0.082442,	 0.96732
	 0.11072,	 0.96426
	 0.1389,	 0.96037
	 0.16694,	 0.95566
	 0.19481,	 0.95013
	 0.2225,	 0.94379
	 0.24998,	 0.93664
	 0.27724,	 0.9287
	 0.29077,	 0.92443
	 0.30423,	 0.91996
	 0.31762,	 0.9153
	 0.33095,	 0.91044
	 0.34419,	 0.90539
	 0.35736,	 0.90015
	 0.37045,	 0.89471
	 0.38345,	 0.88909
	 0.39637,	 0.88328
	 0.4092,	 0.87728
	 0.42194,	 0.87109
	 0.43458,	 0.86473
	 0.44713,	 0.85818
	 0.45957,	 0.85144
	 0.47191,	 0.84453
	 0.48415,	 0.83744
	 0.49628,	 0.83017
	 0.50831,	 0.82273
	 0.52022,	 0.81512
	 0.53201,	 0.80733
	 0.54369,	 0.79938
	 0.55524,	 0.79126
	 0.56668,	 0.78297
	 0.57799,	 0.77452
	 0.58917,	 0.7659
	 0.60023,	 0.75713
	 0.61115,	 0.74819
	 0.62194,	 0.7391
	 0.63259,	 0.72986
	 0.64311,	 0.72046
	 0.65348,	 0.71092
	 0.66372,	 0.70122
	 0.68375,	 0.6814
	 0.70319,	 0.66101
	 0.72202,	 0.64008
	 0.74022,	 0.61861
	 0.75779,	 0.59663
	 0.7747,	 0.57416
	 0.79095,	 0.55122
	 0.80652,	 0.52783
	 0.8214,	 0.504
	 0.83557,	 0.47976
	 0.84903,	 0.45513
	 0.86177,	 0.43013
END
BEGIN
	 0.97931,	-0.19444
	 0.97301,	-0.22308
	 0.96588,	-0.25153
	 0.9579,	-0.27975
	 0.9491,	-0.30771
	 0.93948,	-0.33538
	 0.92905,	-0.36275
	 0.91783,	-0.38979
	 0.90582,	-0.41647
	 0.89304,	-0.44278
	 0.87949,	-0.46869
	 0.8652,	-0.49418
	 0.85017,	-0.51923
	 0.84239,	-0.53158
	 0.83442,	-0.54382
	 0.82628,	-0.55593
	 0.81797,	-0.56792
	 0.80948,	-0.57979
	 0.80082,	-0.59153
	 0.79199,	-0.60314
	 0.78299,	-0.61462
	 0.7645,	-0.63716
	 0.74537,	-0.65915
	 0.7256,	-0.68057
	 0.70522,	-0.70139
	 0.68425,	-0.72159
	 0.6627,	-0.74117
	 0.6406,	-0.76011
	 0.61795,	-0.77839
	 0.59479,	-0.79599
	 0.57112,	-0.8129
	 0.54698,	-0.8291
	 0.52238,	-0.84459
	 0.49734,	-0.85935
	 0.47189,	-0.87337
	 0.44604,	-0.88663
	 0.41983,	-0.89913
	 0.39326,	-0.91085
	 0.36637,	-0.92179
	 0.33917,	-0.93193
	 0.3117,	-0.94127
	 0.28397,	-0.9498
	 0.25601,	-0.95752
	 0.22785,	-0.96441
	 0.1995,	-0.97047
	 0.17099,	-0.9757
	 0.14234,	-0.9801
	 0.11359,	-0.98365
	 0.084757,	-0.98636
	 0.055857,	-0.98822
	 0.026921,	-0.98924
	-0.0020258,	-0.98941
	-0.03096,	-0.98874
	-0.059855,	-0.98722
	-0.088689,	-0.98485
	-0.11743,	-0.98165
	-0.14606,	-0.97761
	-0.17456,	-0.97273
	-0.2029,	-0.96703
	-0.23106,	-0.9605
	-0.259,	-0.95315
	-0.28672,	-0.94499
	-0.31418,	-0.93602
	-0.34136,	-0.92626
	-0.36824,	-0.91571
	-0.39479,	-0.90438
	-0.421,	-0.89229
	-0.44684,	-0.87943
	-0.47229,	-0.86583
	-0.49733,	-0.85149
	-0.52194,	-0.83643
	-0.54609,	-0.82066
	-0.56976,	-0.80419
	-0.59295,	-0.78704
	-0.61562,	-0.76923
	-0.63775,	-0.75076
	-0.65934,	-0.73165
	-0.68035,	-0.71193
	-0.70078,	-0.6916
	-0.7206,	-0.67069
	-0.7398,	-0.64921
	-0.75836,	-0.62718
	-0.77627,	-0.60461
	-0.79352,	-0.58154
	-0.81007,	-0.55798
	-0.82593,	-0.53394
	-0.84108,	-0.50945
	-0.85551,	-0.48454
	-0.8692,	-0.45921
	-0.88214,	-0.4335
	-0.89433,	-0.40742
	-0.90574,	-0.38099
	-0.91638,	-0.35425
	-0.92623,	-0.32721
	-0.93529,	-0.29989
	-0.94354,	-0.27232
	-0.95098,	-0.24453
	-0.9576,	-0.21653
	-0.9634,	-0.18835
	-0.96837,	-0.16001
	-0.9725,	-0.13154
	-0.97581,	-0.10297
	-0.97827,	-0.074313
	-0.97989,	-0.045597
	-0.98067,	-0.016846
	-0.98061,	 0.011913
	-0.9797,	 0.040656
	-0.97795,	 0.069359
	-0.97536,	 0.097996
	-0.97194,	 0.12654
	-0.96767,	 0.15497
	-0.96257,	 0.18326
	-0.95665,	 0.21139
	-0.9499,	 0.23934
	-0.94233,	 0.26707
	-0.93396,	 0.29456
	-0.92478,	 0.32179
	-0.9148,	 0.34874
	-0.90404,	 0.37538
	-0.8925,	 0.4017
	-0.8802,	 0.42766
	-0.86713,	 0.45324
	-0.85333,	 0.47843
	-0.83878,	 0.50319
	-0.82352,	 0.52752
	-0.80755,	 0.55138
	-0.79089,	 0.57476
	-0.77355,	 0.59764
	-0.75554,	 0.61999
	-0.73689,	 0.6418
	-0.71761,	 0.66305
	-0.69771,	 0.68372
	-0.67722,	 0.70379
	-0.65614,	 0.72325
	-0.63451,	 0.74207
	-0.61234,	 0.76025
	-0.58964,	 0.77776
	-0.56644,	 0.79459
	-0.54277,	 0.81073
	-0.51863,	 0.82616
	-0.49405,	 0.84087
	-0.46906,	 0.85485
	-0.44367,	 0.86808
	-0.41791,	 0.88056
	-0.3918,	 0.89227
	-0.37862,	 0.89783
	-0.36537,	 0.9032
	-0.35203,	 0.90837
	-0.33863,	 0.91335
	-0.32515,	 0.91812
	-0.31161,	 0.9227
	-0.298,	 0.92708
	-0.28433,	 0.93125
	-0.2706,	 0.93522
	-0.25682,	 0.93899
	-0.24299,	 0.94256
	-0.22911,	 0.94592
	-0.21518,	 0.94908
	-0.20121,	 0.95203
	-0.1872,	 0.95477
	-0.17315,	 0.95731
	-0.15907,	 0.95964
	-0.14496,	 0.96176
	-0.13082,	 0.96368
	-0.11665,	 0.96538
	-0.10247,	 0.96688
	-0.088273,	 0.96817
	-0.074055,	 0.96925
	-0.059826,	 0.97012
	-0.045588,	 0.97078
	-0.031344,	 0.97123
	-0.017097,	 0.97148
	-0.002851,	 0.97151
	 0.011391,	 0.97133
	 0.025627,	 0.97095
	 0.039853,	 0.97036
	 0.054066,	 0.96955
	 0.082442,	 0.96732
	 0.11072,	 0.96426
	 0.1389,	 0.96037
	 0.16694,	 0.95566
	 0.19481,	 0.95013
	 0.2225,	 0.94379
	 0.24998,	 0.93664
	 0.27724,	 0.9287
	 0.29077,	 0.92443
	 0.30423,	 0.91996
	 0.31762,	 0.9153
	 0.33095,	 0.91044
	 0.34419,	 0.90539
	 0.35736,	 0.90015
	 0.37045,	 0.89471
	 0.38345,	 0.88909
	 0.39637,	 0.88328
	 0.4092,	 0.87728
	 0.42194,	 0.87109
	 0.43458,	 0.86473
	 0.44713,	 0.85818
	 0.45957,	 0.85144
	 0.47191,	 0.84453
	 0.48415,	 0.83744
	 0.49628,	 0.83017
	 0.50831,	 0.82273
	 0.52022,	 0.81512
	 0.53201,	 0.80733
	 0.54369,	 0.79938
	 0.55524,	 0.79126
	 0.56668,	 0.78297
	 0.57799,	 0.77452
	 0.58917,	 0.7659
	 0.60023,	 0.75713
	 0.61115,	 0.74819
	 0.62194,	 0.7391
	 0.63259,	 0.72986
	 0.64311,	 0.72046
	 0.65348,	 0.71092
	 0.66372,	 0.70122
	 0.68375,	 0.6814
	 0.70319,	 0.66101
	 0.72202,	 0.64008
	 0.74022,	 0.61861
	 0.75779,	 0.59663
	 0.7747,	 0.57416
	 0.79095,	 0.55122
	 0.80652,	 0.52783
	 0.8214,	 0.504
	 0.83557,	 0.47976
	 0.84903,	 0.45513
	 0.86177,	 0.43013
END
BEGIN
	 0.0012296,	 0.0068352
	 0.0016205,	 0.0079667
	 0.0020807,	 0.0090663
	 0.0026057,	 0.010134
	 0.0031923,	 0.01117
	 0.0038382,	 0.012172
	 0.0045415,	 0.013139
	 0.0053003,	 0.01407
	 0.0061132,	 0.014962
	 0.0069783,	 0.015813
	 0.0078939,	 0.01662
	 0.0088582,	 0.017383
	 0.0098692,	 0.018097
	 0.010392,	 0.018435
	 0.010925,	 0.01876
	 0.011469,	 0.019073
	 0.012023,	 0.019371
	 0.012587,	 0.019656
	 0.013161,	 0.019927
	 0.013744,	 0.020184
	 0.014336,	 0.020426
	 0.015547,	 0.020866
	 0.016789,	 0.021243
	 0.01806,	 0.021558
	 0.019357,	 0.021807
	 0.020676,	 0.02199
	 0.022014,	 0.022104
	 0.023368,	 0.022148
	 0.024734,	 0.022122
	 0.026108,	 0.022024
	 0.027486,	 0.021854
	 0.028864,	 0.021611
	 0.030238,	 0.021296
	 0.031605,	 0.020907
	 0.032961,	 0.020445
	 0.034301,	 0.019912
	 0.035621,	 0.019306
	 0.036918,	 0.018631
	 0.038187,	 0.017885
	 0.039426,	 0.017073
	 0.040629,	 0.016193
	 0.041794,	 0.01525
	 0.042918,	 0.014244
	 0.043995,	 0.013179
	 0.045025,	 0.012056
	 0.046003,	 0.010878
	 0.046926,	 0.0096478
	 0.047792,	 0.0083687
	 0.048599,	 0.0070436
	 0.049344,	 0.0056758
	 0.050024,	 0.0042684
	 0.050638,	 0.0028249
	 0.051185,	 0.0013489
	 0.051661,	-0.0001562
	 0.052067,	-0.0016867
	 0.052401,	-0.0032388
	 0.052661,	-0.0048089
	 0.052847,	-0.0063933
	 0.052959,	-0.0079881
	 0.052995,	-0.0095895
	 0.052956,	-0.011194
	 0.052841,	-0.012797
	 0.052651,	-0.014396
	 0.052386,	-0.015985
	 0.052046,	-0.017563
	 0.051632,	-0.019125
	 0.051144,	-0.020666
	 0.050584,	-0.022185
	 0.049953,	-0.023676
	 0.049251,	-0.025136
	 0.048482,	-0.026562
	 0.047645,	-0.027951
	 0.046743,	-0.029298
	 0.045778,	-0.030601
	 0.044752,	-0.031855
	 0.043668,	-0.033059
	 0.042527,	-0.034209
	 0.041333,	-0.035302
	 0.040087,	-0.036335
	 0.038794,	-0.037305
	 0.037457,	-0.03821
	 0.036078,	-0.039047
	 0.03466,	-0.039814
	 0.033209,	-0.040508
	 0.031726,	-0.041129
	 0.030217,	-0.041673
	 0.028685,	-0.042139
	 0.027133,	-0.042526
	 0.025567,	-0.042832
	 0.023991,	-0.043058
	 0.022408,	-0.0432
	 0.020824,	-0.043261
	 0.019243,	-0.043238
	 0.017669,	-0.043131
	 0.016107,	-0.042943
	 0.014561,	-0.042671
	 0.013037,	-0.042318
