CITIFILE A.01.01
#Momentum: B.09.20.456 (*) 372.600 Nov 12 2011 
#Momentum Date and Time: Wed Oct 10 20:37:42 2012

NAME Momentum.SP

#  mode: MW    project: proj    reference: S_50

CONSTANT NBR_OF_PORTS 2

CONSTANT NORMALIZATION 1

VAR freq MAG 8

DATA S[1,1] RI
DATA S[1,2] RI
DATA S[2,1] RI
DATA S[2,2] RI
DATA S_50[1,1] RI
DATA S_50[1,2] RI
DATA S_50[2,1] RI
DATA S_50[2,2] RI
DATA S_Z0[1,1] RI
DATA S_Z0[1,2] RI
DATA S_Z0[2,1] RI
DATA S_Z0[2,2] RI
DATA Z0[1] RI
DATA Z0[2] RI
DATA PORTZ[1] RI
DATA PORTZ[2] RI

VAR_LIST_BEGIN
	 100000000
	 341666666.8
	 583333333.5
	 1066666667
	 1550000000
	 2033333333
	 2516666667
	 3000000000
VAR_LIST_END

BEGIN
	 0.00122961163,	 0.00683516224
	 0.0143364396,	 0.0204261504
	 0.0356211248,	 0.0193062892
	 0.0499527744,	-0.0236756627
	 0.0072381858,	-0.0401144405
	-0.000176001634,	 0.000563595592
	 0.0477137849,	-0.00570893778
	 0.0350909347,	-0.0621697248
END
BEGIN
	 0.979311257,	-0.194446652
	 0.782994788,	-0.614621839
	 0.41983034,	-0.899135576
	-0.472297246,	-0.865832349
	-0.972509429,	-0.131547287
	-0.677220595,	 0.703798975
	 0.166940203,	 0.955667068
	 0.861772181,	 0.430135957
END
BEGIN
	 0.979311257,	-0.194446652
	 0.782994788,	-0.614621839
	 0.41983034,	-0.899135576
	-0.472297246,	-0.865832349
	-0.972509429,	-0.131547287
	-0.677220595,	 0.703798975
	 0.166940203,	 0.955667068
	 0.861772181,	 0.430135957
END
BEGIN
	 0.00122961234,	 0.0068351621
	 0.0143364457,	 0.0204261455
	 0.0356211334,	 0.0193062705
	 0.0499527568,	-0.0236756951
	 0.00723817212,	-0.0401144432
	-0.000175969441,	 0.00056355999
	 0.047713768,	-0.00570903245
	 0.035090872,	-0.0621697589
END
BEGIN
	 0.00122961163,	 0.00683516224
	 0.0143364396,	 0.0204261504
	 0.0356211248,	 0.0193062892
	 0.0499527744,	-0.0236756627
	 0.0072381858,	-0.0401144405
	-0.000176001634,	 0.000563595592
	 0.0477137849,	-0.00570893778
	 0.0350909347,	-0.0621697248
END
BEGIN
	 0.979311257,	-0.194446652
	 0.782994788,	-0.614621839
	 0.41983034,	-0.899135576
	-0.472297246,	-0.865832349
	-0.972509429,	-0.131547287
	-0.677220595,	 0.703798975
	 0.166940203,	 0.955667068
	 0.861772181,	 0.430135957
END
BEGIN
	 0.979311257,	-0.194446652
	 0.782994788,	-0.614621839
	 0.41983034,	-0.899135576
	-0.472297246,	-0.865832349
	-0.972509429,	-0.131547287
	-0.677220595,	 0.703798975
	 0.166940203,	 0.955667068
	 0.861772181,	 0.430135957
END
BEGIN
	 0.00122961234,	 0.0068351621
	 0.0143364457,	 0.0204261455
	 0.0356211334,	 0.0193062705
	 0.0499527568,	-0.0236756951
	 0.00723817212,	-0.0401144432
	-0.000175969441,	 0.00056355999
	 0.047713768,	-0.00570903245
	 0.035090872,	-0.0621697589
END
BEGIN
	 0.00122961163,	 0.00683516224
	 0.0143364396,	 0.0204261504
	 0.0356211248,	 0.0193062892
	 0.0499527744,	-0.0236756627
	 0.0072381858,	-0.0401144405
	-0.000176001634,	 0.000563595592
	 0.0477137849,	-0.00570893778
	 0.0350909347,	-0.0621697248
END
BEGIN
	 0.979311257,	-0.194446652
	 0.782994788,	-0.614621839
	 0.41983034,	-0.899135576
	-0.472297246,	-0.865832349
	-0.972509429,	-0.131547287
	-0.677220595,	 0.703798975
	 0.166940203,	 0.955667068
	 0.861772181,	 0.430135957
END
BEGIN
	 0.979311257,	-0.194446652
	 0.782994788,	-0.614621839
	 0.41983034,	-0.899135576
	-0.472297246,	-0.865832349
	-0.972509429,	-0.131547287
	-0.677220595,	 0.703798975
	 0.166940203,	 0.955667068
	 0.861772181,	 0.430135957
END
BEGIN
	 0.00122961234,	 0.0068351621
	 0.0143364457,	 0.0204261455
	 0.0356211334,	 0.0193062705
	 0.0499527568,	-0.0236756951
	 0.00723817212,	-0.0401144432
	-0.000175969441,	 0.00056355999
	 0.047713768,	-0.00570903245
	 0.035090872,	-0.0621697589
END
BEGIN
	 50 ,	 0 
	 50 ,	 0 
	 50 ,	 0 
	 50 ,	 0 
	 50 ,	 0 
	 50 ,	 0 
	 50 ,	 0 
	 50 ,	 0 
END
BEGIN
	 50 ,	 0 
	 50 ,	 0 
	 50 ,	 0 
	 50 ,	 0 
	 50 ,	 0 
	 50 ,	 0 
	 50 ,	 0 
	 50 ,	 0 
END
BEGIN
	 50 ,	 0 
	 50 ,	 0 
	 50 ,	 0 
	 50 ,	 0 
	 50 ,	 0 
	 50 ,	 0 
	 50 ,	 0 
	 50 ,	 0 
END
BEGIN
	 50 ,	 0 
	 50 ,	 0 
	 50 ,	 0 
	 50 ,	 0 
	 50 ,	 0 
	 50 ,	 0 
	 50 ,	 0 
	 50 ,	 0 
END
