CITIFILE A.01.01
#Momentum: B.09.20.456 (*) 372.600 Nov 12 2011 
#Momentum Date and Time: Wed Oct 10 20:23:55 2012

NAME PortSet1/TwoP0_Dsolver_data/first_odd_mode_is_1/most_even_mode_is_1/PMLG4/LS0

CONSTANT NBR_OF_PORTS 2

VAR freq MAG 20

DATA GAMMA_1[1] RI
DATA Z0_1[1,1] RI
DATA LAMBADAI_1[1,1] RI
DATA Zcir_1[1,1] RI
DATA Ycir_1[1,1] RI

VAR_LIST_BEGIN
	 100000000
	 101000000
	 102000000
	 103000000
	 133626052.4
	 163358759.8
	 193091467.3
	 222824174.7
	 277474702.1
	 358787147.9
	 457109772.9
	 570273541.8
	 708142991.3
	 884374148.1
	 1109910677
	 1393048247
	 1745036282
	 2183807174
	 2733639241
	 3000000000
VAR_LIST_END

BEGIN
	 0.04534223319,	 3.7957631
	 0.04565034007,	 3.833470861
	 0.04595772349,	 3.871176884
	 0.04626439381,	 3.90888119
	 0.05535744128,	 5.062878386
	 0.06375145659,	 6.182094542
	 0.07183389222,	 7.300452352
	 0.07967509328,	 8.418110573
	 0.09360638208,	 10.47096539
	 0.1134933881,	 13.52261242
	 0.1366068289,	 17.20944639
	 0.1623291462,	 21.44962178
	 0.1927664668,	 26.61219541
	 0.2306468495,	 33.20752848
	 0.2779385578,	 41.64414711
	 0.3359928051,	 52.23204481
	 0.4067594401,	 65.3930814
	 0.4935019101,	 81.80161588
	 0.600693977,	 102.3744109
	 0.6522085751,	 112.3469977
END
BEGIN
	 89.811115937871321 ,	 -0.30175129503231563 
	 89.810105753952783 ,	 -0.29837177251354685 
	 89.809122134488803 ,	 -0.29504146970750045 
	 89.808164336939768 ,	 -0.29175919174014264 
	 89.788346674914138 ,	 -0.2096382810093794 
	 89.780098814886586 ,	 -0.15295496513514203 
	 89.777456854417252 ,	 -0.10981154411027484 
	 89.777993197619594 ,	 -0.075543224752227592 
	 89.78340183199532 ,	 -0.027462919275066153 
	 89.796122434801958 ,	 0.022742172456117614 
	 89.813728402217421 ,	 0.064675921041860193 
	 89.834077571981823 ,	 0.098925931003659817 
	 89.857612545085189 ,	 0.1291121037859094 
	 89.88527502716363 ,	 0.1570190600125598 
	 89.9171942480328 ,	 0.1826758561410935 
	 89.953097680460615 ,	 0.20577000792671055 
	 89.993433604781458 ,	 0.22643612286980511 
	 90.039938514969393 ,	 0.2450897126126117 
	 90.095897119534627 ,	 0.26212089547442718 
	 90.122993698664345 ,	 0.26875592610358739 
END
BEGIN
	 0.04534223319,	 3.7957631
	 0.04565034007,	 3.833470861
	 0.04595772349,	 3.871176884
	 0.04626439381,	 3.90888119
	 0.05535744128,	 5.062878386
	 0.06375145659,	 6.182094542
	 0.07183389222,	 7.300452352
	 0.07967509328,	 8.418110573
	 0.09360638208,	 10.47096539
	 0.1134933881,	 13.52261242
	 0.1366068289,	 17.20944639
	 0.1623291462,	 21.44962178
	 0.1927664668,	 26.61219541
	 0.2306468495,	 33.20752848
	 0.2779385578,	 41.64414711
	 0.3359928051,	 52.23204481
	 0.4067594401,	 65.3930814
	 0.4935019101,	 81.80161588
	 0.600693977,	 102.3744109
	 0.6522085751,	 112.3469977
END
BEGIN
	 0.01384972771,	 1.440128567e-009
	 0.01391887098,	 1.44001933e-009
	 0.01398767126,	 1.4399117e-009
	 0.01405613343,	 1.439805638e-009
	 0.01601099032,	 1.437158766e-009
	 0.01770283132,	 1.435341254e-009
	 0.01924649233,	 1.433964051e-009
	 0.02067526777,	 1.432874842e-009
	 0.02307183989,	 1.431356132e-009
	 0.02623556123,	 1.429788281e-009
	 0.02961304112,	 1.428502829e-009
	 0.03307608417,	 1.427482036e-009
	 0.03685813301,	 1.426621096e-009
	 0.0411900446,	 1.42588283e-009
	 0.04614460796,	 1.42529277e-009
	 0.05169693522,	 1.424895083e-009
	 0.05786186831,	 1.424736216e-009
	 0.06473103655,	 1.424883704e-009
	 0.07242737229,	 1.425450521e-009
	 0.07587672892,	 1.425846744e-009
END
BEGIN
	 0.1366996834,	 2.534149861e-008
	 0.1380667216,	 2.534012381e-008
	 0.1394337603,	 2.533876262e-008
	 0.1408007997,	 2.533741476e-008
	 0.1826681667,	 2.530147623e-008
	 0.2233150965,	 2.527378371e-008
	 0.263963074,	 2.52507758e-008
	 0.3046123462,	 2.523110882e-008
	 0.3793323682,	 2.520108158e-008
	 0.4905181549,	 2.516610174e-008
	 0.6249893889,	 2.513342757e-008
	 0.7798019058,	 2.510394164e-008
	 0.9684893271,	 2.507553513e-008
	 1.2098237833618781 ,	 2.5047023785161975e-008 
	 1.5189568208411492 ,	 2.5018788422262381e-008 
	 1.9075534701749748 ,	 2.4991760067497491e-008 
	 2.3915500349879748 ,	 2.4966503912293237e-008 
	 2.9964457190246363 ,	 2.4943237062352206e-008 
	 3.7571462995968723 ,	 2.4922113595773467e-008 
	 4.1267992706991876 ,	 2.4914030149970664e-008 
END
CITIFILE A.01.01
NAME PortSet2/TwoP0_Dsolver_data/first_odd_mode_is_1/most_even_mode_is_1/PMLG4/LS0

VAR freq MAG 20

DATA GAMMA_1[1] RI
DATA Z0_1[1,1] RI
DATA LAMBADAI_1[1,1] RI
DATA Zcir_1[1,1] RI
DATA Ycir_1[1,1] RI

VAR_LIST_BEGIN
	 100000000
	 101000000
	 102000000
	 103000000
	 133626052.4
	 163358759.8
	 193091467.3
	 222824174.7
	 277474702.1
	 358787147.9
	 457109772.9
	 570273541.8
	 708142991.3
	 884374148.1
	 1109910677
	 1393048247
	 1745036282
	 2183807174
	 2733639241
	 3000000000
VAR_LIST_END

BEGIN
	 0.04534223319,	 3.7957631
	 0.04565034007,	 3.833470861
	 0.04595772349,	 3.871176884
	 0.04626439381,	 3.90888119
	 0.05535744128,	 5.062878386
	 0.06375145659,	 6.182094542
	 0.07183389222,	 7.300452352
	 0.07967509328,	 8.418110573
	 0.09360638208,	 10.47096539
	 0.1134933881,	 13.52261242
	 0.1366068289,	 17.20944639
	 0.1623291462,	 21.44962178
	 0.1927664668,	 26.61219541
	 0.2306468495,	 33.20752848
	 0.2779385578,	 41.64414711
	 0.3359928051,	 52.23204481
	 0.4067594401,	 65.3930814
	 0.4935019101,	 81.80161588
	 0.600693977,	 102.3744109
	 0.6522085751,	 112.3469977
END
BEGIN
	 89.811115937871321 ,	 -0.30175129503231563 
	 89.810105753952783 ,	 -0.29837177251354685 
	 89.809122134488803 ,	 -0.29504146970750045 
	 89.808164336939768 ,	 -0.29175919174014264 
	 89.788346674914138 ,	 -0.2096382810093794 
	 89.780098814886586 ,	 -0.15295496513514203 
	 89.777456854417252 ,	 -0.10981154411027484 
	 89.777993197619594 ,	 -0.075543224752227592 
	 89.78340183199532 ,	 -0.027462919275066153 
	 89.796122434801958 ,	 0.022742172456117614 
	 89.813728402217421 ,	 0.064675921041860193 
	 89.834077571981823 ,	 0.098925931003659817 
	 89.857612545085189 ,	 0.1291121037859094 
	 89.88527502716363 ,	 0.1570190600125598 
	 89.9171942480328 ,	 0.1826758561410935 
	 89.953097680460615 ,	 0.20577000792671055 
	 89.993433604781458 ,	 0.22643612286980511 
	 90.039938514969393 ,	 0.2450897126126117 
	 90.095897119534627 ,	 0.26212089547442718 
	 90.122993698664345 ,	 0.26875592610358739 
END
BEGIN
	 0.04534223319,	 3.7957631
	 0.04565034007,	 3.833470861
	 0.04595772349,	 3.871176884
	 0.04626439381,	 3.90888119
	 0.05535744128,	 5.062878386
	 0.06375145659,	 6.182094542
	 0.07183389222,	 7.300452352
	 0.07967509328,	 8.418110573
	 0.09360638208,	 10.47096539
	 0.1134933881,	 13.52261242
	 0.1366068289,	 17.20944639
	 0.1623291462,	 21.44962178
	 0.1927664668,	 26.61219541
	 0.2306468495,	 33.20752848
	 0.2779385578,	 41.64414711
	 0.3359928051,	 52.23204481
	 0.4067594401,	 65.3930814
	 0.4935019101,	 81.80161588
	 0.600693977,	 102.3744109
	 0.6522085751,	 112.3469977
END
BEGIN
	 0.01384972771,	 1.440128567e-009
	 0.01391887098,	 1.44001933e-009
	 0.01398767126,	 1.4399117e-009
	 0.01405613343,	 1.439805638e-009
	 0.01601099032,	 1.437158766e-009
	 0.01770283132,	 1.435341254e-009
	 0.01924649233,	 1.433964051e-009
	 0.02067526777,	 1.432874842e-009
	 0.02307183989,	 1.431356132e-009
	 0.02623556123,	 1.429788281e-009
	 0.02961304112,	 1.428502829e-009
	 0.03307608417,	 1.427482036e-009
	 0.03685813301,	 1.426621096e-009
	 0.0411900446,	 1.42588283e-009
	 0.04614460796,	 1.42529277e-009
	 0.05169693522,	 1.424895083e-009
	 0.05786186831,	 1.424736216e-009
	 0.06473103655,	 1.424883704e-009
	 0.07242737229,	 1.425450521e-009
	 0.07587672892,	 1.425846744e-009
END
BEGIN
	 0.1366996834,	 2.534149861e-008
	 0.1380667216,	 2.534012381e-008
	 0.1394337603,	 2.533876262e-008
	 0.1408007997,	 2.533741476e-008
	 0.1826681667,	 2.530147623e-008
	 0.2233150965,	 2.527378371e-008
	 0.263963074,	 2.52507758e-008
	 0.3046123462,	 2.523110882e-008
	 0.3793323682,	 2.520108158e-008
	 0.4905181549,	 2.516610174e-008
	 0.6249893889,	 2.513342757e-008
	 0.7798019058,	 2.510394164e-008
	 0.9684893271,	 2.507553513e-008
	 1.2098237833618781 ,	 2.5047023785161975e-008 
	 1.5189568208411492 ,	 2.5018788422262381e-008 
	 1.9075534701749748 ,	 2.4991760067497491e-008 
	 2.3915500349879748 ,	 2.4966503912293237e-008 
	 2.9964457190246363 ,	 2.4943237062352206e-008 
	 3.7571462995968723 ,	 2.4922113595773467e-008 
	 4.1267992706991876 ,	 2.4914030149970664e-008 
END
