CITIFILE A.01.01
#Momentum: B.09.20.456 (*) 372.600 Nov 12 2011 
#Momentum Date and Time: Wed Oct 10 20:23:58 2012

NAME Momentum.SP

#  mode: MW    project: proj    reference: S_50

CONSTANT NBR_OF_PORTS 2

CONSTANT NORMALIZATION 1

VAR freq MAG 4

DATA S[1,1] RI
DATA S[1,2] RI
DATA S[2,1] RI
DATA S[2,2] RI
DATA S_50[1,1] RI
DATA S_50[1,2] RI
DATA S_50[2,1] RI
DATA S_50[2,2] RI
DATA S_Z0[1,1] RI
DATA S_Z0[1,2] RI
DATA S_Z0[2,1] RI
DATA S_Z0[2,2] RI
DATA GAMMA[1] RI
DATA GAMMA[2] RI
DATA Z0[1] RI
DATA Z0[2] RI
DATA PORTZ[1] RI
DATA PORTZ[2] RI

VAR_LIST_BEGIN
	 100000000
	 1066666667
	 2033333333
	 3000000000
VAR_LIST_END

BEGIN
	 0.000497351574,	 0.0127109997
	 0.0343817295,	 0.12941727
	 0.113073137,	 0.215548108
	 0.214532291,	 0.257145072
END
BEGIN
	 0.9993352801192189 ,	 -0.024336363721044977 
	 0.957035787,	-0.251714668
	 0.857354042,	-0.44847684
	 0.721592676,	-0.600752319
END
BEGIN
	 0.99933528011921946 ,	 -0.024336363721044977 
	 0.957035787,	-0.251714668
	 0.857354042,	-0.44847684
	 0.721592676,	-0.600752319
END
BEGIN
	 0.000497352487,	 0.0127109997
	 0.0343818089,	 0.129417248
	 0.113073347,	 0.215547997
	 0.214532573,	 0.257144837
END
BEGIN
	 0.000497351574,	 0.0127109997
	 0.0343817295,	 0.12941727
	 0.113073137,	 0.215548108
	 0.214532291,	 0.257145072
END
BEGIN
	 0.9993352801192189 ,	 -0.024336363721044977 
	 0.957035787,	-0.251714668
	 0.857354042,	-0.44847684
	 0.721592676,	-0.600752319
END
BEGIN
	 0.99933528011921946 ,	 -0.024336363721044977 
	 0.957035787,	-0.251714668
	 0.857354042,	-0.44847684
	 0.721592676,	-0.600752319
END
BEGIN
	 0.000497352487,	 0.0127109997
	 0.0343818089,	 0.129417248
	 0.113073347,	 0.215547997
	 0.214532573,	 0.257144837
END
BEGIN
	-1.78139427e-005,	-0.00347988525
	-5.67964285e-005,	 0.00183614156
	-0.000412682743,	 0.00146606019
	-0.00158143728,	-0.000127056503
END
BEGIN
	 0.9996206083042618 ,	 -0.017397891442312376 
	 0.974065302,	-0.21978663
	 0.910267892,	-0.40785772
	 0.811259653,	-0.57864134
END
BEGIN
	 0.99962060830426214 ,	 -0.017397891442312373 
	 0.974065302,	-0.21978663
	 0.910267892,	-0.40785772
	 0.811259653,	-0.57864134
END
BEGIN
	-1.78130296e-005,	-0.00347988524
	-5.67155759e-005,	 0.0018361222
	-0.00041245971,	 0.00146595911
	-0.00158112022,	-0.000127282875
END
BEGIN
	 0.0453422332,	 3.7957631
	 0.268974243,	 40.0265273
	 0.46393838,	 76.173221
	 0.652208575,	 112.346998
END
BEGIN
	 0.0453422332,	 3.7957631
	 0.268974243,	 40.0265273
	 0.46393838,	 76.173221
	 0.652208575,	 112.346998
END
BEGIN
	 89.811115939999993 ,	 -0.30175129519999999 
	 89.911381370000001 ,	 0.1783402922 
	 90.024467189999996 ,	 0.23930606160000001 
	 90.122993690000001 ,	 0.26875592609999999 
END
BEGIN
	 89.811115939999993 ,	 -0.30175129519999999 
	 89.911381370000001 ,	 0.1783402922 
	 90.024467189999996 ,	 0.23930606160000001 
	 90.122993690000001 ,	 0.26875592609999999 
END
BEGIN
	 50 ,	 0 
	 50 ,	 0 
	 50 ,	 0 
	 50 ,	 0 
END
BEGIN
	 50 ,	 0 
	 50 ,	 0 
	 50 ,	 0 
	 50 ,	 0 
END
