CITIFILE A.01.01
#Momentum: B.09.20.456 (*) 372.600 Nov 12 2011 
#Momentum Date and Time: Wed Oct 10 20:23:57 2012

NAME Momentum.SP

#  mode: MW    reference: S_50

CONSTANT NBR_OF_PORTS 2

CONSTANT NORMALIZATION 1

VAR freq MAG 85

DATA S[1,1] RI
DATA S[1,2] RI
DATA S[2,1] RI
DATA S[2,2] RI
DATA S_50[1,1] RI
DATA S_50[1,2] RI
DATA S_50[2,1] RI
DATA S_50[2,2] RI
DATA S_Z0[1,1] RI
DATA S_Z0[1,2] RI
DATA S_Z0[2,1] RI
DATA S_Z0[2,2] RI
DATA GAMMA[1] RI
DATA GAMMA[2] RI
DATA Z0[1] RI
DATA Z0[2] RI
DATA PORTZ[1] RI
DATA PORTZ[2] RI

VAR_LIST_BEGIN
	 100000000
	 115104166.7
	 130208333.3
	 145312500
	 160416666.7
	 175520833.4
	 190625000
	 205729166.7
	 220833333.4
	 251041666.7
	 281250000.1
	 311458333.4
	 341666666.8
	 371875000.1
	 402083333.4
	 432291666.8
	 462500000.1
	 492708333.5
	 522916666.8
	 553125000.2
	 583333333.5
	 613541666.8
	 643750000.2
	 673958333.5
	 704166666.9
	 734375000.2
	 764583333.6
	 794791666.9
	 825000000.3
	 855208333.6
	 885416666.9
	 915625000.3
	 945833333.6
	 976041667
	 1006250000
	 1036458334
	 1066666667
	 1096875000
	 1127083334
	 1157291667
	 1187500000
	 1217708334
	 1247916667
	 1278125000
	 1308333334
	 1338541667
	 1368750000
	 1398958333
	 1429166667
	 1459375000
	 1489583333
	 1519791667
	 1550000000
	 1580208333
	 1610416667
	 1640625000
	 1670833333
	 1701041667
	 1731250000
	 1761458333
	 1791666667
	 1821875000
	 1852083333
	 1882291666
	 1912500000
	 1942708333
	 1972916666
	 2003125000
	 2033333333
	 2093750000
	 2154166666
	 2214583333
	 2275000000
	 2335416666
	 2395833333
	 2456250000
	 2516666667
	 2577083333
	 2637500000
	 2697916667
	 2758333333
	 2818750000
	 2879166667
	 2939583333
	 3000000000
VAR_LIST_END

BEGIN
	 0.00049735,	 0.012711
	 0.00060122,	 0.014629
	 0.00071961,	 0.016547
	 0.00085252,	 0.018463
	 0.00099991,	 0.020379
	 0.0011618,	 0.022294
	 0.001338,	 0.024208
	 0.0015287,	 0.02612
	 0.0017337,	 0.028031
	 0.0021867,	 0.031849
	 0.0026967,	 0.035661
	 0.0032632,	 0.039466
	 0.0038859,	 0.043262
	 0.0045643,	 0.04705
	 0.0052979,	 0.050828
	 0.0060862,	 0.054595
	 0.0069287,	 0.058351
	 0.0078248,	 0.062094
	 0.008774,	 0.065824
	 0.0097757,	 0.069539
	 0.010829,	 0.073238
	 0.011934,	 0.076921
	 0.01309,	 0.080585
	 0.014297,	 0.084231
	 0.015553,	 0.087856
	 0.016859,	 0.09146
	 0.018214,	 0.095042
	 0.019618,	 0.0986
	 0.02107,	 0.10213
	 0.02257,	 0.10564
	 0.024118,	 0.10912
	 0.025712,	 0.11258
	 0.027354,	 0.116
	 0.029042,	 0.1194
	 0.030777,	 0.12277
	 0.032556,	 0.12611
	 0.034382,	 0.12941
	 0.036252,	 0.13269
	 0.038166,	 0.13593
	 0.040124,	 0.13914
	 0.042126,	 0.14231
	 0.04417,	 0.14545
	 0.046257,	 0.14856
	 0.048385,	 0.15163
	 0.050554,	 0.15466
	 0.052764,	 0.15766
	 0.055013,	 0.16062
	 0.057301,	 0.16354
	 0.059628,	 0.16643
	 0.061992,	 0.16927
	 0.064393,	 0.17208
	 0.066831,	 0.17485
	 0.069303,	 0.17758
	 0.071811,	 0.18027
	 0.074353,	 0.18291
	 0.076928,	 0.18552
	 0.079535,	 0.18809
	 0.082174,	 0.19061
	 0.084844,	 0.19309
	 0.087545,	 0.19553
	 0.090274,	 0.19793
	 0.093032,	 0.20028
	 0.095818,	 0.2026
	 0.098631,	 0.20486
	 0.10147,	 0.20709
	 0.10433,	 0.20927
	 0.10722,	 0.2114
	 0.11013,	 0.2135
	 0.11307,	 0.21554
	 0.11901,	 0.2195
	 0.12503,	 0.22328
	 0.13112,	 0.22688
	 0.13729,	 0.2303
	 0.14352,	 0.23353
	 0.14981,	 0.23659
	 0.15614,	 0.23946
	 0.16253,	 0.24214
	 0.16895,	 0.24465
	 0.17541,	 0.24697
	 0.18189,	 0.24911
	 0.1884,	 0.25107
	 0.19492,	 0.25285
	 0.20145,	 0.25446
	 0.20799,	 0.25589
	 0.21453,	 0.25714
END
BEGIN
	 0.99933528011921924 ,	 -0.02433636372104505 
	 0.99920630370029018 ,	 -0.028009239059808948 
	 0.99905929243127778 ,	 -0.031680887350646433 
	 0.99889427635410133 ,	 -0.035351152217962957 
	 0.99871128879951665 ,	 -0.039019878921456828 
	 0.99851036625445011 ,	 -0.042686914502139586 
	 0.99829154822004873 ,	 -0.046352107915459469 
	 0.99805487706185858 ,	 -0.050015310150890037 
	 0.99780039785358243 ,	 -0.053676374337514141 
	 0.99723820815167286 ,	 -0.060991512311957582 
	 0.99660538766542228 ,	 -0.068296392771628578 
	 0.99590237771989154 ,	 -0.075589925231708363 
	 0.99512964712674457 ,	 -0.082871058679164097 
	 0.9942876870889964 ,	 -0.090138781641428509 
	 0.99337700642728177 ,	 -0.09739212152379631 
	 0.99239812722913678 ,	 -0.1046301433231471 
	 0.99135158099358056 ,	 -0.11185194783599398 
	 0.99023790531474998 ,	 -0.11905666948204914 
	 0.98905,	-0.12624
	 0.98781,	-0.13341
	 0.98649,	-0.14056
	 0.98512,	-0.14768
	 0.98368,	-0.15479
	 0.98217,	-0.16188
	 0.9806,	-0.16894
	 0.97897,	-0.17598
	 0.97728,	-0.183
	 0.97552,	-0.18999
	 0.97371,	-0.19695
	 0.97183,	-0.2039
	 0.96989,	-0.21081
	 0.96789,	-0.2177
	 0.96584,	-0.22456
	 0.96372,	-0.23139
	 0.96155,	-0.23819
	 0.95932,	-0.24497
	 0.95703,	-0.25171
	 0.95469,	-0.25842
	 0.95229,	-0.2651
	 0.94983,	-0.27175
	 0.94732,	-0.27837
	 0.94476,	-0.28496
	 0.94214,	-0.29151
	 0.93947,	-0.29802
	 0.93674,	-0.30451
	 0.93397,	-0.31095
	 0.93114,	-0.31736
	 0.92827,	-0.32374
	 0.92534,	-0.33008
	 0.92236,	-0.33638
	 0.91934,	-0.34264
	 0.91627,	-0.34887
	 0.91315,	-0.35505
	 0.90998,	-0.3612
	 0.90677,	-0.36731
	 0.90351,	-0.37338
	 0.90021,	-0.37941
	 0.89686,	-0.3854
	 0.89347,	-0.39134
	 0.89004,	-0.39725
	 0.88656,	-0.40311
	 0.88305,	-0.40893
	 0.87949,	-0.41471
	 0.8759,	-0.42045
	 0.87226,	-0.42614
	 0.86859,	-0.43179
	 0.86488,	-0.43739
	 0.86113,	-0.44295
	 0.85735,	-0.44847
	 0.84968,	-0.45937
	 0.84187,	-0.47009
	 0.83393,	-0.48063
	 0.82587,	-0.49099
	 0.81769,	-0.50116
	 0.8094,	-0.51115
	 0.80101,	-0.52095
	 0.79251,	-0.53056
	 0.78392,	-0.53999
	 0.77524,	-0.54923
	 0.76647,	-0.55828
	 0.75763,	-0.56715
	 0.74871,	-0.57583
	 0.73973,	-0.58432
	 0.73069,	-0.59263
	 0.72159,	-0.60075
END
BEGIN
	 0.99933528011921924 ,	 -0.02433636372104505 
	 0.99920630370029018 ,	 -0.028009239059808948 
	 0.99905929243127778 ,	 -0.031680887350646433 
	 0.99889427635410133 ,	 -0.035351152217962957 
	 0.99871128879951665 ,	 -0.039019878921456828 
	 0.99851036625445011 ,	 -0.042686914502139586 
	 0.99829154822004873 ,	 -0.046352107915459469 
	 0.99805487706185858 ,	 -0.050015310150890037 
	 0.99780039785358243 ,	 -0.053676374337514141 
	 0.99723820815167286 ,	 -0.060991512311957582 
	 0.99660538766542228 ,	 -0.068296392771628578 
	 0.99590237771989154 ,	 -0.075589925231708363 
	 0.99512964712674457 ,	 -0.082871058679164097 
	 0.9942876870889964 ,	 -0.090138781641428509 
	 0.99337700642728177 ,	 -0.09739212152379631 
	 0.99239812722913678 ,	 -0.1046301433231471 
	 0.99135158099358056 ,	 -0.11185194783599398 
	 0.99023790531474998 ,	 -0.11905666948204914 
	 0.98905,	-0.12624
	 0.98781,	-0.13341
	 0.98649,	-0.14056
	 0.98512,	-0.14768
	 0.98368,	-0.15479
	 0.98217,	-0.16188
	 0.9806,	-0.16894
	 0.97897,	-0.17598
	 0.97728,	-0.183
	 0.97552,	-0.18999
	 0.97371,	-0.19695
	 0.97183,	-0.2039
	 0.96989,	-0.21081
	 0.96789,	-0.2177
	 0.96584,	-0.22456
	 0.96372,	-0.23139
	 0.96155,	-0.23819
	 0.95932,	-0.24497
	 0.95703,	-0.25171
	 0.95469,	-0.25842
	 0.95229,	-0.2651
	 0.94983,	-0.27175
	 0.94732,	-0.27837
	 0.94476,	-0.28496
	 0.94214,	-0.29151
	 0.93947,	-0.29802
	 0.93674,	-0.30451
	 0.93397,	-0.31095
	 0.93114,	-0.31736
	 0.92827,	-0.32374
	 0.92534,	-0.33008
	 0.92236,	-0.33638
	 0.91934,	-0.34264
	 0.91627,	-0.34887
	 0.91315,	-0.35505
	 0.90998,	-0.3612
	 0.90677,	-0.36731
	 0.90351,	-0.37338
	 0.90021,	-0.37941
	 0.89686,	-0.3854
	 0.89347,	-0.39134
	 0.89004,	-0.39725
	 0.88656,	-0.40311
	 0.88305,	-0.40893
	 0.87949,	-0.41471
	 0.8759,	-0.42045
	 0.87226,	-0.42614
	 0.86859,	-0.43179
	 0.86488,	-0.43739
	 0.86113,	-0.44295
	 0.85735,	-0.44847
	 0.84968,	-0.45937
	 0.84187,	-0.47009
	 0.83393,	-0.48063
	 0.82587,	-0.49099
	 0.81769,	-0.50116
	 0.8094,	-0.51115
	 0.80101,	-0.52095
	 0.79251,	-0.53056
	 0.78392,	-0.53999
	 0.77524,	-0.54923
	 0.76647,	-0.55828
	 0.75763,	-0.56715
	 0.74871,	-0.57583
	 0.73973,	-0.58432
	 0.73069,	-0.59263
	 0.72159,	-0.60075
END
BEGIN
	 0.00049735,	 0.012711
	 0.00060122,	 0.014629
	 0.00071961,	 0.016547
	 0.00085252,	 0.018463
	 0.00099991,	 0.020379
	 0.0011618,	 0.022294
	 0.001338,	 0.024208
	 0.0015287,	 0.02612
	 0.0017337,	 0.028031
	 0.0021867,	 0.031849
	 0.0026967,	 0.035661
	 0.0032632,	 0.039466
	 0.0038859,	 0.043262
	 0.0045643,	 0.04705
	 0.0052979,	 0.050828
	 0.0060862,	 0.054595
	 0.0069287,	 0.058351
	 0.0078248,	 0.062094
	 0.008774,	 0.065824
	 0.0097757,	 0.069539
	 0.010829,	 0.073238
	 0.011934,	 0.076921
	 0.01309,	 0.080585
	 0.014297,	 0.084231
	 0.015553,	 0.087856
	 0.016859,	 0.09146
	 0.018214,	 0.095042
	 0.019618,	 0.0986
	 0.02107,	 0.10213
	 0.02257,	 0.10564
	 0.024118,	 0.10912
	 0.025712,	 0.11258
	 0.027354,	 0.116
	 0.029042,	 0.1194
	 0.030777,	 0.12277
	 0.032557,	 0.12611
	 0.034382,	 0.12941
	 0.036252,	 0.13269
	 0.038166,	 0.13593
	 0.040125,	 0.13914
	 0.042126,	 0.14231
	 0.04417,	 0.14545
	 0.046257,	 0.14856
	 0.048385,	 0.15163
	 0.050554,	 0.15466
	 0.052764,	 0.15766
	 0.055013,	 0.16062
	 0.057301,	 0.16354
	 0.059628,	 0.16643
	 0.061992,	 0.16927
	 0.064393,	 0.17208
	 0.066831,	 0.17485
	 0.069304,	 0.17758
	 0.071811,	 0.18027
	 0.074353,	 0.18291
	 0.076928,	 0.18552
	 0.079535,	 0.18809
	 0.082175,	 0.19061
	 0.084845,	 0.19309
	 0.087545,	 0.19553
	 0.090274,	 0.19793
	 0.093033,	 0.20028
	 0.095819,	 0.2026
	 0.098632,	 0.20486
	 0.10147,	 0.20709
	 0.10433,	 0.20927
	 0.10722,	 0.2114
	 0.11013,	 0.2135
	 0.11307,	 0.21554
	 0.11901,	 0.2195
	 0.12503,	 0.22328
	 0.13112,	 0.22688
	 0.13729,	 0.2303
	 0.14352,	 0.23353
	 0.14981,	 0.23659
	 0.15614,	 0.23946
	 0.16253,	 0.24214
	 0.16895,	 0.24465
	 0.17541,	 0.24697
	 0.18189,	 0.24911
	 0.1884,	 0.25107
	 0.19492,	 0.25285
	 0.20145,	 0.25446
	 0.20799,	 0.25589
	 0.21453,	 0.25714
END
BEGIN
	 0.00049735,	 0.012711
	 0.00060122,	 0.014629
	 0.00071961,	 0.016547
	 0.00085252,	 0.018463
	 0.00099991,	 0.020379
	 0.0011618,	 0.022294
	 0.001338,	 0.024208
	 0.0015287,	 0.02612
	 0.0017337,	 0.028031
	 0.0021867,	 0.031849
	 0.0026967,	 0.035661
	 0.0032632,	 0.039466
	 0.0038859,	 0.043262
	 0.0045643,	 0.04705
	 0.0052979,	 0.050828
	 0.0060862,	 0.054595
	 0.0069287,	 0.058351
	 0.0078248,	 0.062094
	 0.008774,	 0.065824
	 0.0097757,	 0.069539
	 0.010829,	 0.073238
	 0.011934,	 0.076921
	 0.01309,	 0.080585
	 0.014297,	 0.084231
	 0.015553,	 0.087856
	 0.016859,	 0.09146
	 0.018214,	 0.095042
	 0.019618,	 0.0986
	 0.02107,	 0.10213
	 0.02257,	 0.10564
	 0.024118,	 0.10912
	 0.025712,	 0.11258
	 0.027354,	 0.116
	 0.029042,	 0.1194
	 0.030777,	 0.12277
	 0.032556,	 0.12611
	 0.034382,	 0.12941
	 0.036252,	 0.13269
	 0.038166,	 0.13593
	 0.040124,	 0.13914
	 0.042126,	 0.14231
	 0.04417,	 0.14545
	 0.046257,	 0.14856
	 0.048385,	 0.15163
	 0.050554,	 0.15466
	 0.052764,	 0.15766
	 0.055013,	 0.16062
	 0.057301,	 0.16354
	 0.059628,	 0.16643
	 0.061992,	 0.16927
	 0.064393,	 0.17208
	 0.066831,	 0.17485
	 0.069303,	 0.17758
	 0.071811,	 0.18027
	 0.074353,	 0.18291
	 0.076928,	 0.18552
	 0.079535,	 0.18809
	 0.082174,	 0.19061
	 0.084844,	 0.19309
	 0.087545,	 0.19553
	 0.090274,	 0.19793
	 0.093032,	 0.20028
	 0.095818,	 0.2026
	 0.098631,	 0.20486
	 0.10147,	 0.20709
	 0.10433,	 0.20927
	 0.10722,	 0.2114
	 0.11013,	 0.2135
	 0.11307,	 0.21554
	 0.11901,	 0.2195
	 0.12503,	 0.22328
	 0.13112,	 0.22688
	 0.13729,	 0.2303
	 0.14352,	 0.23353
	 0.14981,	 0.23659
	 0.15614,	 0.23946
	 0.16253,	 0.24214
	 0.16895,	 0.24465
	 0.17541,	 0.24697
	 0.18189,	 0.24911
	 0.1884,	 0.25107
	 0.19492,	 0.25285
	 0.20145,	 0.25446
	 0.20799,	 0.25589
	 0.21453,	 0.25714
END
BEGIN
	 0.99933528011921924 ,	 -0.02433636372104505 
	 0.99920630370029018 ,	 -0.028009239059808948 
	 0.99905929243127778 ,	 -0.031680887350646433 
	 0.99889427635410133 ,	 -0.035351152217962957 
	 0.99871128879951665 ,	 -0.039019878921456828 
	 0.99851036625445011 ,	 -0.042686914502139586 
	 0.99829154822004873 ,	 -0.046352107915459469 
	 0.99805487706185858 ,	 -0.050015310150890037 
	 0.99780039785358243 ,	 -0.053676374337514141 
	 0.99723820815167286 ,	 -0.060991512311957582 
	 0.99660538766542228 ,	 -0.068296392771628578 
	 0.99590237771989154 ,	 -0.075589925231708363 
	 0.99512964712674457 ,	 -0.082871058679164097 
	 0.9942876870889964 ,	 -0.090138781641428509 
	 0.99337700642728177 ,	 -0.09739212152379631 
	 0.99239812722913678 ,	 -0.1046301433231471 
	 0.99135158099358056 ,	 -0.11185194783599398 
	 0.99023790531474998 ,	 -0.11905666948204914 
	 0.98905,	-0.12624
	 0.98781,	-0.13341
	 0.98649,	-0.14056
	 0.98512,	-0.14768
	 0.98368,	-0.15479
	 0.98217,	-0.16188
	 0.9806,	-0.16894
	 0.97897,	-0.17598
	 0.97728,	-0.183
	 0.97552,	-0.18999
	 0.97371,	-0.19695
	 0.97183,	-0.2039
	 0.96989,	-0.21081
	 0.96789,	-0.2177
	 0.96584,	-0.22456
	 0.96372,	-0.23139
	 0.96155,	-0.23819
	 0.95932,	-0.24497
	 0.95703,	-0.25171
	 0.95469,	-0.25842
	 0.95229,	-0.2651
	 0.94983,	-0.27175
	 0.94732,	-0.27837
	 0.94476,	-0.28496
	 0.94214,	-0.29151
	 0.93947,	-0.29802
	 0.93674,	-0.30451
	 0.93397,	-0.31095
	 0.93114,	-0.31736
	 0.92827,	-0.32374
	 0.92534,	-0.33008
	 0.92236,	-0.33638
	 0.91934,	-0.34264
	 0.91627,	-0.34887
	 0.91315,	-0.35505
	 0.90998,	-0.3612
	 0.90677,	-0.36731
	 0.90351,	-0.37338
	 0.90021,	-0.37941
	 0.89686,	-0.3854
	 0.89347,	-0.39134
	 0.89004,	-0.39725
	 0.88656,	-0.40311
	 0.88305,	-0.40893
	 0.87949,	-0.41471
	 0.8759,	-0.42045
	 0.87226,	-0.42614
	 0.86859,	-0.43179
	 0.86488,	-0.43739
	 0.86113,	-0.44295
	 0.85735,	-0.44847
	 0.84968,	-0.45937
	 0.84187,	-0.47009
	 0.83393,	-0.48063
	 0.82587,	-0.49099
	 0.81769,	-0.50116
	 0.8094,	-0.51115
	 0.80101,	-0.52095
	 0.79251,	-0.53056
	 0.78392,	-0.53999
	 0.77524,	-0.54923
	 0.76647,	-0.55828
	 0.75763,	-0.56715
	 0.74871,	-0.57583
	 0.73973,	-0.58432
	 0.73069,	-0.59263
	 0.72159,	-0.60075
END
BEGIN
	 0.99933528011921924 ,	 -0.02433636372104505 
	 0.99920630370029018 ,	 -0.028009239059808948 
	 0.99905929243127778 ,	 -0.031680887350646433 
	 0.99889427635410133 ,	 -0.035351152217962957 
	 0.99871128879951665 ,	 -0.039019878921456828 
	 0.99851036625445011 ,	 -0.042686914502139586 
	 0.99829154822004873 ,	 -0.046352107915459469 
	 0.99805487706185858 ,	 -0.050015310150890037 
	 0.99780039785358243 ,	 -0.053676374337514141 
	 0.99723820815167286 ,	 -0.060991512311957582 
	 0.99660538766542228 ,	 -0.068296392771628578 
	 0.99590237771989154 ,	 -0.075589925231708363 
	 0.99512964712674457 ,	 -0.082871058679164097 
	 0.9942876870889964 ,	 -0.090138781641428509 
	 0.99337700642728177 ,	 -0.09739212152379631 
	 0.99239812722913678 ,	 -0.1046301433231471 
	 0.99135158099358056 ,	 -0.11185194783599398 
	 0.99023790531474998 ,	 -0.11905666948204914 
	 0.98905,	-0.12624
	 0.98781,	-0.13341
	 0.98649,	-0.14056
	 0.98512,	-0.14768
	 0.98368,	-0.15479
	 0.98217,	-0.16188
	 0.9806,	-0.16894
	 0.97897,	-0.17598
	 0.97728,	-0.183
	 0.97552,	-0.18999
	 0.97371,	-0.19695
	 0.97183,	-0.2039
	 0.96989,	-0.21081
	 0.96789,	-0.2177
	 0.96584,	-0.22456
	 0.96372,	-0.23139
	 0.96155,	-0.23819
	 0.95932,	-0.24497
	 0.95703,	-0.25171
	 0.95469,	-0.25842
	 0.95229,	-0.2651
	 0.94983,	-0.27175
	 0.94732,	-0.27837
	 0.94476,	-0.28496
	 0.94214,	-0.29151
	 0.93947,	-0.29802
	 0.93674,	-0.30451
	 0.93397,	-0.31095
	 0.93114,	-0.31736
	 0.92827,	-0.32374
	 0.92534,	-0.33008
	 0.92236,	-0.33638
	 0.91934,	-0.34264
	 0.91627,	-0.34887
	 0.91315,	-0.35505
	 0.90998,	-0.3612
	 0.90677,	-0.36731
	 0.90351,	-0.37338
	 0.90021,	-0.37941
	 0.89686,	-0.3854
	 0.89347,	-0.39134
	 0.89004,	-0.39725
	 0.88656,	-0.40311
	 0.88305,	-0.40893
	 0.87949,	-0.41471
	 0.8759,	-0.42045
	 0.87226,	-0.42614
	 0.86859,	-0.43179
	 0.86488,	-0.43739
	 0.86113,	-0.44295
	 0.85735,	-0.44847
	 0.84968,	-0.45937
	 0.84187,	-0.47009
	 0.83393,	-0.48063
	 0.82587,	-0.49099
	 0.81769,	-0.50116
	 0.8094,	-0.51115
	 0.80101,	-0.52095
	 0.79251,	-0.53056
	 0.78392,	-0.53999
	 0.77524,	-0.54923
	 0.76647,	-0.55828
	 0.75763,	-0.56715
	 0.74871,	-0.57583
	 0.73973,	-0.58432
	 0.73069,	-0.59263
	 0.72159,	-0.60075
END
BEGIN
	 0.00049735,	 0.012711
	 0.00060122,	 0.014629
	 0.00071961,	 0.016547
	 0.00085252,	 0.018463
	 0.00099991,	 0.020379
	 0.0011618,	 0.022294
	 0.001338,	 0.024208
	 0.0015287,	 0.02612
	 0.0017337,	 0.028031
	 0.0021867,	 0.031849
	 0.0026967,	 0.035661
	 0.0032632,	 0.039466
	 0.0038859,	 0.043262
	 0.0045643,	 0.04705
	 0.0052979,	 0.050828
	 0.0060862,	 0.054595
	 0.0069287,	 0.058351
	 0.0078248,	 0.062094
	 0.008774,	 0.065824
	 0.0097757,	 0.069539
	 0.010829,	 0.073238
	 0.011934,	 0.076921
	 0.01309,	 0.080585
	 0.014297,	 0.084231
	 0.015553,	 0.087856
	 0.016859,	 0.09146
	 0.018214,	 0.095042
	 0.019618,	 0.0986
	 0.02107,	 0.10213
	 0.02257,	 0.10564
	 0.024118,	 0.10912
	 0.025712,	 0.11258
	 0.027354,	 0.116
	 0.029042,	 0.1194
	 0.030777,	 0.12277
	 0.032557,	 0.12611
	 0.034382,	 0.12941
	 0.036252,	 0.13269
	 0.038166,	 0.13593
	 0.040125,	 0.13914
	 0.042126,	 0.14231
	 0.04417,	 0.14545
	 0.046257,	 0.14856
	 0.048385,	 0.15163
	 0.050554,	 0.15466
	 0.052764,	 0.15766
	 0.055013,	 0.16062
	 0.057301,	 0.16354
	 0.059628,	 0.16643
	 0.061992,	 0.16927
	 0.064393,	 0.17208
	 0.066831,	 0.17485
	 0.069304,	 0.17758
	 0.071811,	 0.18027
	 0.074353,	 0.18291
	 0.076928,	 0.18552
	 0.079535,	 0.18809
	 0.082175,	 0.19061
	 0.084845,	 0.19309
	 0.087545,	 0.19553
	 0.090274,	 0.19793
	 0.093033,	 0.20028
	 0.095819,	 0.2026
	 0.098632,	 0.20486
	 0.10147,	 0.20709
	 0.10433,	 0.20927
	 0.10722,	 0.2114
	 0.11013,	 0.2135
	 0.11307,	 0.21554
	 0.11901,	 0.2195
	 0.12503,	 0.22328
	 0.13112,	 0.22688
	 0.13729,	 0.2303
	 0.14352,	 0.23353
	 0.14981,	 0.23659
	 0.15614,	 0.23946
	 0.16253,	 0.24214
	 0.16895,	 0.24465
	 0.17541,	 0.24697
	 0.18189,	 0.24911
	 0.1884,	 0.25107
	 0.19492,	 0.25285
	 0.20145,	 0.25446
	 0.20799,	 0.25589
	 0.21453,	 0.25714
END
BEGIN
	-1.7814e-005,	-0.0034799
	-2.0054e-005,	-0.0029794
	-2.0667e-005,	-0.002569
	-2.0156e-005,	-0.0022266
	-1.8758e-005,	-0.0019336
	-1.6736e-005,	-0.0016812
	-1.4193e-005,	-0.0014599
	-1.1272e-005,	-0.0012649
	-8.0189e-006,	-0.0010905
	-8.6673e-007,	-0.00079295
	 6.9918e-006,	-0.00054451
	 1.5091e-005,	-0.00033513
	 2.3398e-005,	-0.00015224
	 3.1641e-005,	 9.4576e-006
	 3.9509e-005,	 0.00015324
	 4.6985e-005,	 0.00028484
	 5.3882e-005,	 0.00040667
	 5.9822e-005,	 0.00051869
	 6.481e-005,	 0.00062423
	 6.8717e-005,	 0.00072457
	 7.1344e-005,	 0.00081992
	 7.2506e-005,	 0.00091031
	 7.223e-005,	 0.00099702
	 7.0486e-005,	 0.0010804
	 6.7276e-005,	 0.0011605
	 6.2471e-005,	 0.0012366
	 5.6216e-005,	 0.0013091
	 4.8633e-005,	 0.0013783
	 3.9847e-005,	 0.0014441
	 3.0003e-005,	 0.0015065
	 1.9254e-005,	 0.0015654
	 7.5852e-006,	 0.0016199
	-4.7012e-006,	 0.0016706
	-1.7438e-005,	 0.0017175
	-3.0463e-005,	 0.0017607
	-4.3628e-005,	 0.0018003
	-5.6796e-005,	 0.0018361
	-6.9848e-005,	 0.0018684
	-8.2788e-005,	 0.0018967
	-9.5546e-005,	 0.0019212
	-0.00010798,	 0.0019421
	-0.00012005,	 0.0019595
	-0.00013171,	 0.0019737
	-0.00014294,	 0.0019847
	-0.00015374,	 0.0019927
	-0.00016412,	 0.0019976
	-0.0001741,	 0.0019997
	-0.00018373,	 0.0019989
	-0.00019321,	 0.0019948
	-0.00020244,	 0.0019881
	-0.00021147,	 0.0019788
	-0.00022036,	 0.001967
	-0.00022915,	 0.0019529
	-0.00023791,	 0.0019365
	-0.0002467,	 0.0019179
	-0.0002556,	 0.0018972
	-0.00026465,	 0.0018745
	-0.00027393,	 0.0018499
	-0.00028349,	 0.0018235
	-0.00029354,	 0.001795
	-0.00030415,	 0.0017645
	-0.00031528,	 0.0017322
	-0.000327,	 0.0016984
	-0.00033936,	 0.0016631
	-0.00035241,	 0.0016263
	-0.00036622,	 0.0015881
	-0.00038084,	 0.0015486
	-0.00039631,	 0.0015079
	-0.00041268,	 0.0014661
	-0.0004483,	 0.0013792
	-0.00048802,	 0.0012885
	-0.00053241,	 0.001194
	-0.00058184,	 0.0010961
	-0.00063626,	 0.00099574
	-0.00069582,	 0.00089353
	-0.00076064,	 0.00078997
	-0.00083077,	 0.00068559
	-0.00090624,	 0.0005809
	-0.00098703,	 0.00047637
	-0.0010731,	 0.00037251
	-0.0011645,	 0.0002694
	-0.0012614,	 0.00016717
	-0.0013634,	 6.6754e-005
	-0.0014701,	-3.1451e-005
	-0.0015814,	-0.00012706
END
BEGIN
	 0.99962060830426069 ,	 -0.01739789144231103 
	 0.99954649723417699 ,	 -0.021045444462961593 
