CITIFILE A.01.01
#Momentum: B.09.00.103 (*) 370.600 Mar  9 2011 
#Momentum Date and Time: Wed Oct 10 15:38:08 2012

NAME Momentum.SP

#  mode: MW    project: proj    reference: S_50

CONSTANT NBR_OF_PORTS 2

CONSTANT NORMALIZATION 1

VAR freq MAG 9

DATA S[1,1] RI
DATA S[1,2] RI
DATA S[2,1] RI
DATA S[2,2] RI
DATA S_50[1,1] RI
DATA S_50[1,2] RI
DATA S_50[2,1] RI
DATA S_50[2,2] RI
DATA S_Z0[1,1] RI
DATA S_Z0[1,2] RI
DATA S_Z0[2,1] RI
DATA S_Z0[2,2] RI
DATA Z0[1] RI
DATA Z0[2] RI
DATA PORTZ[1] RI
DATA PORTZ[2] RI

VAR_LIST_BEGIN
	 100000000
	 341666666.8
	 583333333.5
	 1066666667
	 1550000000
	 2033333333
	 2516666667
	 2838888889
	 3000000000
VAR_LIST_END

BEGIN
	 0.00482389858,	 0.0311227453
	 0.0554245544,	 0.0853420873
	 0.126541996,	 0.0904615228
	 0.221433498,	 0.00870038441
	 0.256064794,	-0.0961107088
	 0.263264751,	-0.243606611
	 0.13517067,	-0.440759406
	-0.0521945261,	-0.506711235
	-0.157081931,	-0.501255838
END
BEGIN
	 0.976608742,	-0.206355784
	 0.755817862,	-0.644802715
	 0.355736369,	-0.92036109
	-0.556168637,	-0.791063352
	-0.944913628,	 0.018782222
	-0.487921102,	 0.77614724
	 0.354995132,	 0.793005251
	 0.722258539,	 0.411046492
	 0.794850279,	 0.16840181
END
BEGIN
	 0.976608742,	-0.206355784
	 0.755817862,	-0.644802715
	 0.355736369,	-0.92036109
	-0.556168637,	-0.791063352
	-0.944913628,	 0.018782222
	-0.487921102,	 0.77614724
	 0.354995132,	 0.793005251
	 0.722258539,	 0.411046492
	 0.794850279,	 0.16840181
END
BEGIN
	 0.00777400063,	 0.030469192
	 0.0817080008,	 0.0628171117
	 0.161697571,	-0.00115145822
	 0.0516541185,	-0.228027491
	-0.253838775,	-0.0822590819
	-0.092372622,	 0.326187504
	 0.415678455,	 0.178440195
	 0.45369326,	-0.219452493
	 0.336854322,	-0.393215852
END
BEGIN
	 0.00482389858,	 0.0311227453
	 0.0554245544,	 0.0853420873
	 0.126541996,	 0.0904615228
	 0.221433498,	 0.00870038441
	 0.256064794,	-0.0961107088
	 0.263264751,	-0.243606611
	 0.13517067,	-0.440759406
	-0.0521945261,	-0.506711235
	-0.157081931,	-0.501255838
END
BEGIN
	 0.976608742,	-0.206355784
	 0.755817862,	-0.644802715
	 0.355736369,	-0.92036109
	-0.556168637,	-0.791063352
	-0.944913628,	 0.018782222
	-0.487921102,	 0.77614724
	 0.354995132,	 0.793005251
	 0.722258539,	 0.411046492
	 0.794850279,	 0.16840181
END
BEGIN
	 0.976608742,	-0.206355784
	 0.755817862,	-0.644802715
	 0.355736369,	-0.92036109
	-0.556168637,	-0.791063352
	-0.944913628,	 0.018782222
	-0.487921102,	 0.77614724
	 0.354995132,	 0.793005251
	 0.722258539,	 0.411046492
	 0.794850279,	 0.16840181
END
BEGIN
	 0.00777400063,	 0.030469192
	 0.0817080008,	 0.0628171117
	 0.161697571,	-0.00115145822
	 0.0516541185,	-0.228027491
	-0.253838775,	-0.0822590819
	-0.092372622,	 0.326187504
	 0.415678455,	 0.178440195
	 0.45369326,	-0.219452493
	 0.336854322,	-0.393215852
END
BEGIN
	 0.00482389858,	 0.0311227453
	 0.0554245544,	 0.0853420873
	 0.126541996,	 0.0904615228
	 0.221433498,	 0.00870038441
	 0.256064794,	-0.0961107088
	 0.263264751,	-0.243606611
	 0.13517067,	-0.440759406
	-0.0521945261,	-0.506711235
	-0.157081931,	-0.501255838
END
BEGIN
	 0.976608742,	-0.206355784
	 0.755817862,	-0.644802715
	 0.355736369,	-0.92036109
	-0.556168637,	-0.791063352
	-0.944913628,	 0.018782222
	-0.487921102,	 0.77614724
	 0.354995132,	 0.793005251
	 0.722258539,	 0.411046492
	 0.794850279,	 0.16840181
END
BEGIN
	 0.976608742,	-0.206355784
	 0.755817862,	-0.644802715
	 0.355736369,	-0.92036109
	-0.556168637,	-0.791063352
	-0.944913628,	 0.018782222
	-0.487921102,	 0.77614724
	 0.354995132,	 0.793005251
	 0.722258539,	 0.411046492
	 0.794850279,	 0.16840181
END
BEGIN
	 0.00777400063,	 0.030469192
	 0.0817080008,	 0.0628171117
	 0.161697571,	-0.00115145822
	 0.0516541185,	-0.228027491
	-0.253838775,	-0.0822590819
	-0.092372622,	 0.326187504
	 0.415678455,	 0.178440195
	 0.45369326,	-0.219452493
	 0.336854322,	-0.393215852
END
BEGIN
	 50 ,	 0 
	 50 ,	 0 
	 50 ,	 0 
	 50 ,	 0 
	 50 ,	 0 
	 50 ,	 0 
	 50 ,	 0 
	 50 ,	 0 
	 50 ,	 0 
END
BEGIN
	 50 ,	 0 
	 50 ,	 0 
	 50 ,	 0 
	 50 ,	 0 
	 50 ,	 0 
	 50 ,	 0 
	 50 ,	 0 
	 50 ,	 0 
	 50 ,	 0 
END
BEGIN
	 50 ,	 0 
	 50 ,	 0 
	 50 ,	 0 
	 50 ,	 0 
	 50 ,	 0 
	 50 ,	 0 
	 50 ,	 0 
	 50 ,	 0 
	 50 ,	 0 
END
BEGIN
	 50 ,	 0 
	 50 ,	 0 
	 50 ,	 0 
	 50 ,	 0 
	 50 ,	 0 
	 50 ,	 0 
	 50 ,	 0 
	 50 ,	 0 
	 50 ,	 0 
END
