CITIFILE A.01.01
#Momentum: B.09.00.103 (*) 370.600 Mar  9 2011 
#Momentum Date and Time: Wed Oct 10 14:34:37 2012

NAME Momentum.SP

#  mode: MW    project: proj    reference: S_50

CONSTANT NBR_OF_PORTS 4

CONSTANT NORMALIZATION 1

VAR freq MAG 9

DATA S[1,1] RI
DATA S[1,2] RI
DATA S[1,3] RI
DATA S[1,4] RI
DATA S[2,1] RI
DATA S[2,2] RI
DATA S[2,3] RI
DATA S[2,4] RI
DATA S[3,1] RI
DATA S[3,2] RI
DATA S[3,3] RI
DATA S[3,4] RI
DATA S[4,1] RI
DATA S[4,2] RI
DATA S[4,3] RI
DATA S[4,4] RI
DATA S_50[1,1] RI
DATA S_50[1,2] RI
DATA S_50[1,3] RI
DATA S_50[1,4] RI
DATA S_50[2,1] RI
DATA S_50[2,2] RI
DATA S_50[2,3] RI
DATA S_50[2,4] RI
DATA S_50[3,1] RI
DATA S_50[3,2] RI
DATA S_50[3,3] RI
DATA S_50[3,4] RI
DATA S_50[4,1] RI
DATA S_50[4,2] RI
DATA S_50[4,3] RI
DATA S_50[4,4] RI
DATA S_Z0[1,1] RI
DATA S_Z0[1,2] RI
DATA S_Z0[1,3] RI
DATA S_Z0[1,4] RI
DATA S_Z0[2,1] RI
DATA S_Z0[2,2] RI
DATA S_Z0[2,3] RI
DATA S_Z0[2,4] RI
DATA S_Z0[3,1] RI
DATA S_Z0[3,2] RI
DATA S_Z0[3,3] RI
DATA S_Z0[3,4] RI
DATA S_Z0[4,1] RI
DATA S_Z0[4,2] RI
DATA S_Z0[4,3] RI
DATA S_Z0[4,4] RI
DATA GAMMA[1] RI
DATA GAMMA[2] RI
DATA GAMMA[3] RI
DATA GAMMA[4] RI
DATA Z0[1] RI
DATA Z0[2] RI
DATA Z0[3] RI
DATA Z0[4] RI
DATA PORTZ[1] RI
DATA PORTZ[2] RI
DATA PORTZ[3] RI
DATA PORTZ[4] RI

VAR_LIST_BEGIN
	 100000000
	 368518518.6
	 905555555.8
	 1066666667
	 1872222222
	 2033333333
	 2677777778
	 2838888889
	 3000000000
VAR_LIST_END

BEGIN
	 0.00596942076,	 0.0288090554
	 0.066356384,	 0.0755644536
	 0.145535779,	-0.0249767788
	 0.116953921,	-0.0598121058
	 0.0381412141,	 0.0599050237
	 0.0793005514,	 0.069498226
	 0.110218673,	-0.0523367369
	 0.0717259458,	-0.0625563741
	 0.034862447,	-0.0484233771
END
BEGIN
	 0.978562872,	-0.195310243
	 0.744367031,	-0.651406076
	-0.167112176,	-0.961475974
	-0.450282037,	-0.866517972
	-0.864708627,	 0.439373798
	-0.685038942,	 0.678006955
	 0.403175265,	 0.86283299
	 0.64647568,	 0.699478211
	 0.828684007,	 0.468162553
END
BEGIN
	 0.00274256281,	 0.0125511055
	 0.0296476249,	 0.0298666493
	 0.051124784,	-0.0164032464
	 0.0345555253,	-0.0264124186
	 0.0287785461,	 0.0377253896
	 0.0488189831,	 0.0303283522
	 0.0198605357,	-0.0293130575
	-0.00122409386,	-0.0193568489
	-0.01263863,	 0.00157163893
END
BEGIN
	-0.00188933612,	-0.00758070543
	-0.0205566535,	-0.0170615377
	-0.0489017301,	 0.0168147474
	-0.0495611044,	 0.0325078272
	 0.0552445544,	 0.101522127
	 0.0913774672,	 0.0841712761
	 0.137824985,	-0.067322939
	 0.120459512,	-0.11086004
	 0.0884250052,	-0.151438303
END
BEGIN
	 0.978562872,	-0.195310243
	 0.744367031,	-0.651406076
	-0.167112176,	-0.961475974
	-0.450282037,	-0.866517972
	-0.864708627,	 0.439373798
	-0.685038942,	 0.678006955
	 0.403175265,	 0.86283299
	 0.64647568,	 0.699478211
	 0.828684007,	 0.468162553
END
BEGIN
	 0.00596942429,	 0.0288090562
	 0.0663564792,	 0.0755644793
	 0.145536273,	-0.0249776301
	 0.116954018,	-0.0598134546
	 0.038141334,	 0.059907683
	 0.0793029452,	 0.0695006678
	 0.110218921,	-0.0523439141
	 0.0717219101,	-0.0625629787
	 0.0348549165,	-0.0484265514
END
BEGIN
	-0.00188922409,	-0.00758072934
	-0.0205552056,	-0.0170628271
	-0.0489038343,	 0.0168031732
	-0.0495687882,	 0.0324933334
	 0.0551993742,	 0.101545749
	 0.0913353507,	 0.0842138631
	 0.137869638,	-0.0672290697
	 0.120539684,	-0.110774534
	 0.0885396856,	-0.151374693
END
BEGIN
	 0.00274256292,	 0.0125511055
	 0.029647626,	 0.0298666485
	 0.0511247836,	-0.0164032507
	 0.0345555235,	-0.026412422
	 0.028778558,	 0.0377253834
	 0.0488189936,	 0.0303283413
	 0.0198605428,	-0.0293130553
	-0.00122407919,	-0.0193568433
	-0.0126385995,	 0.00157164973
END
BEGIN
	 0.00274256281,	 0.0125511055
	 0.0296476249,	 0.0298666493
	 0.051124784,	-0.0164032464
	 0.0345555253,	-0.0264124186
	 0.0287785461,	 0.0377253896
	 0.0488189831,	 0.0303283522
	 0.0198605357,	-0.0293130575
	-0.00122409386,	-0.0193568489
	-0.01263863,	 0.00157163893
END
BEGIN
	-0.00188922409,	-0.00758072934
	-0.0205552056,	-0.0170628271
	-0.0489038343,	 0.0168031732
	-0.0495687882,	 0.0324933334
	 0.0551993742,	 0.101545749
	 0.0913353507,	 0.0842138631
	 0.137869638,	-0.0672290697
	 0.120539684,	-0.110774534
	 0.0885396856,	-0.151374693
END
BEGIN
	 0.00596942462,	 0.0288090542
	 0.0663564844,	 0.0755644774
	 0.145536281,	-0.0249776362
	 0.116954024,	-0.0598134542
	 0.0381413466,	 0.0599077104
	 0.0793029514,	 0.0695006802
	 0.110218819,	-0.0523438948
	 0.0717218411,	-0.062562962
	 0.0348548792,	-0.0484265326
END
BEGIN
	 0.978562872,	-0.195310241
	 0.744367032,	-0.651406075
	-0.167112173,	-0.961475974
	-0.450282033,	-0.866517973
	-0.864708626,	 0.439373795
	-0.685038944,	 0.678006952
	 0.403175247,	 0.862833013
	 0.646475685,	 0.699478215
	 0.828684007,	 0.468162557
END
BEGIN
	-0.00188933612,	-0.00758070543
	-0.0205566535,	-0.0170615377
	-0.0489017301,	 0.0168147474
	-0.0495611044,	 0.0325078272
	 0.0552445544,	 0.101522127
	 0.0913774672,	 0.0841712761
	 0.137824985,	-0.067322939
	 0.120459512,	-0.11086004
	 0.0884250052,	-0.151438303
END
BEGIN
	 0.00274256292,	 0.0125511055
	 0.029647626,	 0.0298666485
	 0.0511247836,	-0.0164032507
	 0.0345555235,	-0.026412422
	 0.028778558,	 0.0377253834
	 0.0488189936,	 0.0303283413
	 0.0198605428,	-0.0293130553
	-0.00122407919,	-0.0193568433
	-0.0126385995,	 0.00157164973
END
BEGIN
	 0.978562872,	-0.195310241
	 0.744367032,	-0.651406075
	-0.167112173,	-0.961475974
	-0.450282033,	-0.866517973
	-0.864708626,	 0.439373795
	-0.685038944,	 0.678006952
	 0.403175247,	 0.862833013
	 0.646475685,	 0.699478215
	 0.828684007,	 0.468162557
END
BEGIN
	 0.00596941957,	 0.0288090537
	 0.0663563813,	 0.0755644586
	 0.145535788,	-0.0249767744
	 0.116953924,	-0.0598121087
	 0.0381412249,	 0.0599050479
	 0.0793005579,	 0.0694982329
	 0.1102186,	-0.0523366687
	 0.0717259256,	-0.062556313
	 0.0348624503,	-0.0484233484
END
BEGIN
	 0.00596942076,	 0.0288090554
	 0.066356384,	 0.0755644536
	 0.145535779,	-0.0249767788
	 0.116953921,	-0.0598121058
	 0.0381412141,	 0.0599050237
	 0.0793005514,	 0.069498226
	 0.110218673,	-0.0523367369
	 0.0717259458,	-0.0625563741
	 0.034862447,	-0.0484233771
END
BEGIN
	 0.978562872,	-0.195310243
	 0.744367031,	-0.651406076
	-0.167112176,	-0.961475974
	-0.450282037,	-0.866517972
	-0.864708627,	 0.439373798
	-0.685038942,	 0.678006955
	 0.403175265,	 0.86283299
	 0.64647568,	 0.699478211
	 0.828684007,	 0.468162553
END
BEGIN
	 0.00274256281,	 0.0125511055
	 0.0296476249,	 0.0298666493
	 0.051124784,	-0.0164032464
	 0.0345555253,	-0.0264124186
	 0.0287785461,	 0.0377253896
	 0.0488189831,	 0.0303283522
	 0.0198605357,	-0.0293130575
	-0.00122409386,	-0.0193568489
	-0.01263863,	 0.00157163893
END
BEGIN
	-0.00188933612,	-0.00758070543
	-0.0205566535,	-0.0170615377
	-0.0489017301,	 0.0168147474
	-0.0495611044,	 0.0325078272
	 0.0552445544,	 0.101522127
	 0.0913774672,	 0.0841712761
	 0.137824985,	-0.067322939
	 0.120459512,	-0.11086004
	 0.0884250052,	-0.151438303
END
BEGIN
	 0.978562872,	-0.195310243
	 0.744367031,	-0.651406076
	-0.167112176,	-0.961475974
	-0.450282037,	-0.866517972
	-0.864708627,	 0.439373798
	-0.685038942,	 0.678006955
	 0.403175265,	 0.86283299
	 0.64647568,	 0.699478211
	 0.828684007,	 0.468162553
END
BEGIN
	 0.00596942429,	 0.0288090562
	 0.0663564792,	 0.0755644793
	 0.145536273,	-0.0249776301
	 0.116954018,	-0.0598134546
	 0.038141334,	 0.059907683
	 0.0793029452,	 0.0695006678
	 0.110218921,	-0.0523439141
	 0.0717219101,	-0.0625629787
	 0.0348549165,	-0.0484265514
END
BEGIN
	-0.00188922409,	-0.00758072934
	-0.0205552056,	-0.0170628271
	-0.0489038343,	 0.0168031732
	-0.0495687882,	 0.0324933334
	 0.0551993742,	 0.101545749
	 0.0913353507,	 0.0842138631
	 0.137869638,	-0.0672290697
	 0.120539684,	-0.110774534
	 0.0885396856,	-0.151374693
END
BEGIN
	 0.00274256292,	 0.0125511055
	 0.029647626,	 0.0298666485
	 0.0511247836,	-0.0164032507
	 0.0345555235,	-0.026412422
	 0.028778558,	 0.0377253834
	 0.0488189936,	 0.0303283413
	 0.0198605428,	-0.0293130553
	-0.00122407919,	-0.0193568433
	-0.0126385995,	 0.00157164973
END
BEGIN
	 0.00274256281,	 0.0125511055
	 0.0296476249,	 0.0298666493
	 0.051124784,	-0.0164032464
	 0.0345555253,	-0.0264124186
	 0.0287785461,	 0.0377253896
	 0.0488189831,	 0.0303283522
	 0.0198605357,	-0.0293130575
	-0.00122409386,	-0.0193568489
	-0.01263863,	 0.00157163893
END
BEGIN
	-0.00188922409,	-0.00758072934
	-0.0205552056,	-0.0170628271
	-0.0489038343,	 0.0168031732
	-0.0495687882,	 0.0324933334
	 0.0551993742,	 0.101545749
	 0.0913353507,	 0.0842138631
	 0.137869638,	-0.0672290697
	 0.120539684,	-0.110774534
	 0.0885396856,	-0.151374693
END
BEGIN
	 0.00596942462,	 0.0288090542
	 0.0663564844,	 0.0755644774
	 0.145536281,	-0.0249776362
	 0.116954024,	-0.0598134542
	 0.0381413466,	 0.0599077104
	 0.0793029514,	 0.0695006802
	 0.110218819,	-0.0523438948
	 0.0717218411,	-0.062562962
	 0.0348548792,	-0.0484265326
END
BEGIN
	 0.978562872,	-0.195310241
	 0.744367032,	-0.651406075
	-0.167112173,	-0.961475974
	-0.450282033,	-0.866517973
	-0.864708626,	 0.439373795
	-0.685038944,	 0.678006952
	 0.403175247,	 0.862833013
	 0.646475685,	 0.699478215
	 0.828684007,	 0.468162557
END
BEGIN
	-0.00188933612,	-0.00758070543
	-0.0205566535,	-0.0170615377
	-0.0489017301,	 0.0168147474
	-0.0495611044,	 0.0325078272
	 0.0552445544,	 0.101522127
	 0.0913774672,	 0.0841712761
	 0.137824985,	-0.067322939
	 0.120459512,	-0.11086004
	 0.0884250052,	-0.151438303
END
BEGIN
	 0.00274256292,	 0.0125511055
	 0.029647626,	 0.0298666485
	 0.0511247836,	-0.0164032507
	 0.0345555235,	-0.026412422
	 0.028778558,	 0.0377253834
	 0.0488189936,	 0.0303283413
	 0.0198605428,	-0.0293130553
	-0.00122407919,	-0.0193568433
	-0.0126385995,	 0.00157164973
END
BEGIN
	 0.978562872,	-0.195310241
	 0.744367032,	-0.651406075
	-0.167112173,	-0.961475974
	-0.450282033,	-0.866517973
	-0.864708626,	 0.439373795
	-0.685038944,	 0.678006952
	 0.403175247,	 0.862833013
	 0.646475685,	 0.699478215
	 0.828684007,	 0.468162557
END
BEGIN
	 0.00596941957,	 0.0288090537
	 0.0663563813,	 0.0755644586
	 0.145535788,	-0.0249767744
	 0.116953924,	-0.0598121087
	 0.0381412249,	 0.0599050479
	 0.0793005579,	 0.0694982329
	 0.1102186,	-0.0523366687
	 0.0717259256,	-0.062556313
	 0.0348624503,	-0.0484233484
END
BEGIN
	-0.00015695366,	-0.000518490131
	 0.000509302619,	 0.00155005948
	-0.00354505425,	 0.000530712243
	-0.00540277205,	 0.0023991308
	 0.0040815245,	 0.00347264845
	 0.00302477988,	-0.00135075945
	-0.0156844804,	 0.00289496852
	-0.0146636695,	 0.00941163527
	-0.00984386943,	 0.0140649501
END
BEGIN
	 0.979470545,	-0.193085692
	 0.750697918,	-0.651984626
	-0.17414613,	-0.97125745
	-0.461186008,	-0.870328883
	-0.86846195,	 0.440186293
	-0.690561838,	 0.682066136
	 0.413388472,	 0.865487815
	 0.655056882,	 0.696886929
	 0.833366385,	 0.463515925
END
BEGIN
	 0.00228801035,	 0.0115994216
	 0.0259579619,	 0.0298835932
	 0.0548710697,	-0.00938179943
	 0.0426365108,	-0.021797295
	 0.0148796614,	 0.0274278966
	 0.0302779316,	 0.0302978809
	 0.0379531439,	-0.0142387823
	 0.0237825754,	-0.0170070643
	 0.0106540047,	-0.0115497512
END
BEGIN
	-0.00113678283,	-0.00584960345
	-0.0143479413,	-0.0164541378
	-0.0526400463,	 0.00944006704
	-0.0557854734,	 0.029529039
	 0.0500910533,	 0.098835734
	 0.0841713314,	 0.0856336273
	 0.143210901,	-0.0662438208
	 0.123323114,	-0.112926947
	 0.0878421624,	-0.153062731
END
BEGIN
	 0.979470545,	-0.193085692
	 0.750697918,	-0.651984626
	-0.17414613,	-0.97125745
	-0.461186008,	-0.870328883
	-0.86846195,	 0.440186293
	-0.690561838,	 0.682066136
	 0.413388472,	 0.865487815
	 0.655056882,	 0.696886929
	 0.833366385,	 0.463515925
END
BEGIN
	-0.000156950181,	-0.000518489432
	 0.000509390909,	 0.00155008526
	-0.00354451903,	 0.000529938476
	-0.00540254996,	 0.00239785413
	 0.00408090217,	 0.00347477506
	 0.00302601622,	-0.00134830477
	-0.0156822929,	 0.00288940711
	-0.0146646796,	 0.00940531089
	-0.00984823949,	 0.0140599773
END
BEGIN
	-0.00113667069,	-0.00584962711
	-0.0143464812,	-0.0164554285
	-0.0526422339,	 0.00942838065
	-0.0557933325,	 0.0295144879
	 0.0500456539,	 0.0988593837
	 0.0841288572,	 0.085676469
	 0.143256586,	-0.0661497404
	 0.123404187,	-0.112841783
	 0.0879573165,	-0.152999676
END
BEGIN
	 0.00228801046,	 0.0115994216
	 0.025957963,	 0.0298835924
	 0.0548710692,	-0.00938180373
	 0.0426365089,	-0.0217972984
	 0.0148796733,	 0.0274278904
	 0.0302779422,	 0.0302978699
	 0.0379531512,	-0.0142387801
	 0.0237825903,	-0.0170070588
	 0.0106540353,	-0.0115497406
END
BEGIN
	 0.00228801035,	 0.0115994216
	 0.0259579619,	 0.0298835932
	 0.0548710697,	-0.00938179943
	 0.0426365108,	-0.021797295
	 0.0148796614,	 0.0274278966
	 0.0302779316,	 0.0302978809
	 0.0379531439,	-0.0142387823
	 0.0237825754,	-0.0170070643
	 0.0106540047,	-0.0115497512
END
BEGIN
	-0.00113667069,	-0.00584962711
	-0.0143464812,	-0.0164554285
	-0.0526422339,	 0.00942838065
	-0.0557933325,	 0.0295144879
	 0.0500456539,	 0.0988593837
	 0.0841288572,	 0.085676469
	 0.143256586,	-0.0661497404
	 0.123404187,	-0.112841783
	 0.0879573165,	-0.152999676
END
BEGIN
	-0.000156949799,	-0.000518491148
	 0.000509396373,	 0.00155008337
	-0.00354451112,	 0.000529931885
	-0.00540254431,	 0.00239785407
	 0.00408091508,	 0.0034748031
	 0.00302602298,	-0.0013482922
	-0.0156823996,	 0.00288942519
	-0.0146647492,	 0.00940532867
	-0.00984827739,	 0.0140599969
END
BEGIN
	 0.979470545,	-0.19308569
	 0.750697919,	-0.651984625
	-0.174146127,	-0.971257452
	-0.461186004,	-0.870328885
	-0.868461952,	 0.440186287
	-0.690561842,	 0.682066133
	 0.413388443,	 0.865487829
	 0.655056878,	 0.696886932
	 0.833366381,	 0.463515931
END
BEGIN
	-0.00113678283,	-0.00584960345
	-0.0143479413,	-0.0164541378
	-0.0526400463,	 0.00944006704
	-0.0557854734,	 0.029529039
	 0.0500910533,	 0.098835734
	 0.0841713314,	 0.0856336273
	 0.143210901,	-0.0662438208
	 0.123323114,	-0.112926947
	 0.0878421624,	-0.153062731
END
BEGIN
	 0.00228801046,	 0.0115994216
	 0.025957963,	 0.0298835924
	 0.0548710692,	-0.00938180373
	 0.0426365089,	-0.0217972984
	 0.0148796733,	 0.0274278904
	 0.0302779422,	 0.0302978699
	 0.0379531512,	-0.0142387801
	 0.0237825903,	-0.0170070588
	 0.0106540353,	-0.0115497406
END
BEGIN
	 0.979470545,	-0.19308569
	 0.750697919,	-0.651984625
	-0.174146127,	-0.971257452
	-0.461186004,	-0.870328885
	-0.868461952,	 0.440186287
	-0.690561842,	 0.682066133
	 0.413388443,	 0.865487829
	 0.655056878,	 0.696886932
	 0.833366381,	 0.463515931
END
BEGIN
	-0.0001569548,	-0.00051849155
	 0.000509300133,	 0.0015500645
	-0.00354504531,	 0.000530716194
	-0.00540276951,	 0.00239912741
	 0.00408153576,	 0.00347267336
	 0.00302478719,	-0.00135075245
	-0.0156845574,	 0.00289503562
	-0.0146636896,	 0.0094116972
	-0.00984386657,	 0.0140649793
END
BEGIN
	 0.0350836672,	 3.89968547
	 0.0977526857,	 14.2880795
	 0.210017978,	 35.0027336
	 0.242547808,	 41.2118894
	 0.40193758,	 72.2611078
	 0.433452613,	 78.4744755
	 0.558935502,	 103.350885
	 0.590225821,	 109.576723
	 0.621509313,	 115.805424
END
BEGIN
	 0.0350836672,	 3.89968547
	 0.0977526857,	 14.2880795
	 0.210017978,	 35.0027336
	 0.242547808,	 41.2118894
	 0.40193758,	 72.2611078
	 0.433452613,	 78.4744755
	 0.558935502,	 103.350885
	 0.590225821,	 109.576723
	 0.621509313,	 115.805424
END
BEGIN
	 0.0350836672,	 3.89968547
	 0.0977526857,	 14.2880795
	 0.210017978,	 35.0027336
	 0.242547808,	 41.2118894
	 0.40193758,	 72.2611078
	 0.433452613,	 78.4744755
	 0.558935502,	 103.350885
	 0.590225821,	 109.576723
	 0.621509313,	 115.805424
END
BEGIN
	 0.0350836672,	 3.89968547
	 0.0977526857,	 14.2880795
	 0.210017978,	 35.0027336
	 0.242547808,	 41.2118894
	 0.40193758,	 72.2611078
	 0.433452613,	 78.4744755
	 0.558935502,	 103.350885
	 0.590225821,	 109.576723
	 0.621509313,	 115.805424
END
BEGIN
	 58.300772510000002 ,	 -0.010681886910000001 
	 58.38421452 ,	 0.1189812021 
	 58.479161189999999 ,	 0.17142080879999999 
	 58.498824999999997 ,	 0.1788425961 
	 58.573680950000004 ,	 0.20078698270000001 
	 58.58628178 ,	 0.2036202895 
	 58.633652069999997 ,	 0.2125565904 
	 58.645212829999998 ,	 0.21436701450000001 
	 58.65684624 ,	 0.21605322690000001 
END
BEGIN
	 58.300772510000002 ,	 -0.010681886910000001 
	 58.38421452 ,	 0.1189812021 
	 58.479161189999999 ,	 0.17142080879999999 
	 58.498824999999997 ,	 0.1788425961 
	 58.573680950000004 ,	 0.20078698270000001 
	 58.58628178 ,	 0.2036202895 
	 58.633652069999997 ,	 0.2125565904 
	 58.645212829999998 ,	 0.21436701450000001 
	 58.65684624 ,	 0.21605322690000001 
END
BEGIN
	 58.300772510000002 ,	 -0.010681886910000001 
	 58.38421452 ,	 0.1189812021 
	 58.479161189999999 ,	 0.17142080879999999 
	 58.498824999999997 ,	 0.1788425961 
	 58.573680950000004 ,	 0.20078698270000001 
	 58.58628178 ,	 0.2036202895 
	 58.633652069999997 ,	 0.2125565904 
	 58.645212829999998 ,	 0.21436701450000001 
	 58.65684624 ,	 0.21605322690000001 
END
BEGIN
	 58.300772510000002 ,	 -0.010681886910000001 
	 58.38421452 ,	 0.1189812021 
	 58.479161189999999 ,	 0.17142080879999999 
	 58.498824999999997 ,	 0.1788425961 
	 58.573680950000004 ,	 0.20078698270000001 
	 58.58628178 ,	 0.2036202895 
	 58.633652069999997 ,	 0.2125565904 
	 58.645212829999998 ,	 0.21436701450000001 
	 58.65684624 ,	 0.21605322690000001 
END
BEGIN
	 50 ,	 0 
	 50 ,	 0 
	 50 ,	 0 
	 50 ,	 0 
	 50 ,	 0 
	 50 ,	 0 
	 50 ,	 0 
	 50 ,	 0 
	 50 ,	 0 
END
BEGIN
	 50 ,	 0 
	 50 ,	 0 
	 50 ,	 0 
	 50 ,	 0 
	 50 ,	 0 
	 50 ,	 0 
	 50 ,	 0 
	 50 ,	 0 
	 50 ,	 0 
END
BEGIN
	 50 ,	 0 
	 50 ,	 0 
	 50 ,	 0 
	 50 ,	 0 
	 50 ,	 0 
	 50 ,	 0 
	 50 ,	 0 
	 50 ,	 0 
	 50 ,	 0 
END
BEGIN
	 50 ,	 0 
	 50 ,	 0 
	 50 ,	 0 
	 50 ,	 0 
	 50 ,	 0 
	 50 ,	 0 
	 50 ,	 0 
	 50 ,	 0 
	 50 ,	 0 
END
