CITIFILE A.01.01
#Momentum: B.09.00.103 (*) 370.600 Mar  9 2011 
#Momentum Date and Time: Wed Oct 10 14:34:27 2012

NAME PortSet1/TwoP0_Dsolver_data/first_odd_mode_is_1/most_even_mode_is_1/PMLG4/LS0

CONSTANT NBR_OF_PORTS 4

VAR freq MAG 20

DATA GAMMA_1[1] RI
DATA Z0_1[1,1] RI
DATA LAMBADAI_1[1,1] RI
DATA Zcir_1[1,1] RI
DATA Ycir_1[1,1] RI

VAR_LIST_BEGIN
	 100000000
	 101000000
	 102000000
	 103000000
	 133529587.1
	 163257040.5
	 192984493.9
	 222711947.3
	 277836747.2
	 358561404.8
	 456739131.4
	 569947889.3
	 707941707
	 884156282.6
	 1109528316
	 1392468667
	 1744307059
	 2182932246
	 2732497710
	 3000000000
VAR_LIST_END

BEGIN
	 0.0350836672,	 3.899685466
	 0.03534487872,	 3.938483332
	 0.03560564792,	 3.977279688
	 0.0358659812,	 4.016074552
	 0.04363215299,	 5.199825452
	 0.05092967127,	 6.351489363
	 0.0580373946,	 7.502390654
	 0.06499726218,	 8.65266679
	 0.07760695742,	 10.78433648
	 0.09556630208,	 13.90353887
	 0.1168469987,	 17.69430385
	 0.1408565623,	 22.0626927
	 0.1695850718,	 27.38471273
	 0.2056678259,	 34.17797615
	 0.2511358254,	 42.86388997
	 0.3074917166,	 53.76767269
	 0.3768434047,	 67.32940477
	 0.46262387,	 84.24630755
	 0.5695551451,	 105.4653526
	 0.6215093131,	 115.8054242
END
BEGIN
	 58.300772511222952 ,	 -0.010681886863451629 
	 58.301057323254412 ,	 -0.0093529753442406546 
	 58.301345800071154 ,	 -0.008043410578149621 
	 58.301637782013003 ,	 -0.0067527234903246485 
	 58.311628268034227 ,	 0.025459334709357608 
	 58.322099474503659 ,	 0.047777366149217279 
	 58.332452163673878 ,	 0.064766412127583883 
	 58.342394786700424 ,	 0.078271245835060912 
	 58.359524371199512 ,	 0.097369367274814864 
	 58.381678189706335 ,	 0.11702347227237893 
	 58.404777453051437 ,	 0.13358773199530161 
	 58.427468227539315 ,	 0.14716968320335164 
	 58.450978516063685 ,	 0.15917292100623412 
	 58.476324786941369 ,	 0.17029546021964573 
	 58.503551932570822 ,	 0.18056615354434905 
	 58.532393799462234 ,	 0.18987812899661097 
	 58.563222207195103 ,	 0.19829800082830412 
	 58.597409063527572 ,	 0.2060077964358272 
	 58.637506730430523 ,	 0.21318953863975715 
	 58.656846243845308 ,	 0.21605322687531742 
END
BEGIN
	 0.0350836672,	 3.899685466
	 0.03534487872,	 3.938483332
	 0.03560564792,	 3.977279688
	 0.0358659812,	 4.016074552
	 0.04363215299,	 5.199825452
	 0.05092967127,	 6.351489363
	 0.0580373946,	 7.502390654
	 0.06499726218,	 8.65266679
	 0.07760695742,	 10.78433648
	 0.09556630208,	 13.90353887
	 0.1168469987,	 17.69430385
	 0.1408565623,	 22.0626927
	 0.1695850718,	 27.38471273
	 0.2056678259,	 34.17797615
	 0.2511358254,	 42.86388997
	 0.3074917166,	 53.76767269
	 0.3768434047,	 67.32940477
	 0.46262387,	 84.24630755
	 0.5695551451,	 105.4653526
	 0.6215093131,	 115.8054242
END
BEGIN
	 0.005539932763,	 9.60489623e-010
	 0.005567590311,	 9.604459898e-010
	 0.00559511065,	 9.604029995e-010
	 0.005622495755,	 9.603606368e-010
	 0.006402132678,	 9.593067994e-010
	 0.007078983165,	 9.58581761e-010
	 0.007696646934,	 9.580335684e-010
	 0.008268090918,	 9.576010121e-010
	 0.009234830568,	 9.569961832e-010
	 0.01049100644,	 9.563874675e-010
	 0.01184051363,	 9.558939128e-010
	 0.01322678835,	 9.555137078e-010
	 0.01474133536,	 9.552109763e-010
	 0.01647423452,	 9.54980468e-010
	 0.01845502961,	 9.54844789e-010
	 0.0206750553,	 9.548379099e-010
	 0.02314089456,	 9.550025584e-010
	 0.02588897749,	 9.554037037e-010
	 0.02896815537,	 9.561444949e-010
	 0.03035497441,	 9.565869343e-010
END
BEGIN
	 0.2220881016,	 4.010575823e-008
	 0.2243091062,	 4.010352805e-008
	 0.2265301134,	 4.010131999e-008
	 0.2287511231,	 4.009913364e-008
	 0.2965590231,	 4.004102408e-008
	 0.362588394,	 3.999614385e-008
	 0.4286214584,	 3.995889955e-008
	 0.4946588691,	 3.992710426e-008
	 0.6171282957,	 3.987827247e-008
	 0.7965109989,	 3.982247708e-008
	 1.0147531050000684 ,	 3.9770295098640153e-008 
	 1.2665330023927812 ,	 3.9723482775318988e-008 
	 1.5736491876259515 ,	 3.9678853941941067e-008 
	 1.9662254502055203 ,	 3.9634802745926218e-008 
	 2.4690623778396201 ,	 3.9592208318771117e-008 
	 3.1016912534071559 ,	 3.9552838261851512e-008 
	 3.8907184104257242 ,	 3.9517951351242611e-008 
	 4.8783902115166278 ,	 3.9488370479488955e-008 
	 6.1226749139532304 ,	 3.9464899236587777e-008 
	 6.7311969361035286 ,	 3.9457105269504289e-008 
END
CITIFILE A.01.01
NAME PortSet2/TwoP0_Dsolver_data/first_odd_mode_is_1/most_even_mode_is_1/PMLG4/LS0

VAR freq MAG 20

DATA GAMMA_1[1] RI
DATA Z0_1[1,1] RI
DATA LAMBADAI_1[1,1] RI
DATA Zcir_1[1,1] RI
DATA Ycir_1[1,1] RI

VAR_LIST_BEGIN
	 100000000
	 101000000
	 102000000
	 103000000
	 133529587.1
	 163257040.5
	 192984493.9
	 222711947.3
	 277836747.2
	 358561404.8
	 456739131.4
	 569947889.3
	 707941707
	 884156282.6
	 1109528316
	 1392468667
	 1744307059
	 2182932246
	 2732497710
	 3000000000
VAR_LIST_END

BEGIN
	 0.0350836672,	 3.899685466
	 0.03534487872,	 3.938483332
	 0.03560564792,	 3.977279688
	 0.0358659812,	 4.016074552
	 0.04363215299,	 5.199825452
	 0.05092967127,	 6.351489363
	 0.0580373946,	 7.502390654
	 0.06499726218,	 8.65266679
	 0.07760695742,	 10.78433648
	 0.09556630208,	 13.90353887
	 0.1168469987,	 17.69430385
	 0.1408565623,	 22.0626927
	 0.1695850718,	 27.38471273
	 0.2056678259,	 34.17797615
	 0.2511358254,	 42.86388997
	 0.3074917166,	 53.76767269
	 0.3768434047,	 67.32940477
	 0.46262387,	 84.24630755
	 0.5695551451,	 105.4653526
	 0.6215093131,	 115.8054242
END
BEGIN
	 58.300772511222952 ,	 -0.010681886863451629 
	 58.301057323254412 ,	 -0.0093529753442406546 
	 58.301345800071154 ,	 -0.008043410578149621 
	 58.301637782013003 ,	 -0.0067527234903246485 
	 58.311628268034227 ,	 0.025459334709357608 
	 58.322099474503659 ,	 0.047777366149217279 
	 58.332452163673878 ,	 0.064766412127583883 
	 58.342394786700424 ,	 0.078271245835060912 
	 58.359524371199512 ,	 0.097369367274814864 
	 58.381678189706335 ,	 0.11702347227237893 
	 58.404777453051437 ,	 0.13358773199530161 
	 58.427468227539315 ,	 0.14716968320335164 
	 58.450978516063685 ,	 0.15917292100623412 
	 58.476324786941369 ,	 0.17029546021964573 
	 58.503551932570822 ,	 0.18056615354434905 
	 58.532393799462234 ,	 0.18987812899661097 
	 58.563222207195103 ,	 0.19829800082830412 
	 58.597409063527572 ,	 0.2060077964358272 
	 58.637506730430523 ,	 0.21318953863975715 
	 58.656846243845308 ,	 0.21605322687531742 
END
BEGIN
	 0.0350836672,	 3.899685466
	 0.03534487872,	 3.938483332
	 0.03560564792,	 3.977279688
	 0.0358659812,	 4.016074552
	 0.04363215299,	 5.199825452
	 0.05092967127,	 6.351489363
	 0.0580373946,	 7.502390654
	 0.06499726218,	 8.65266679
	 0.07760695742,	 10.78433648
	 0.09556630208,	 13.90353887
	 0.1168469987,	 17.69430385
	 0.1408565623,	 22.0626927
	 0.1695850718,	 27.38471273
	 0.2056678259,	 34.17797615
	 0.2511358254,	 42.86388997
	 0.3074917166,	 53.76767269
	 0.3768434047,	 67.32940477
	 0.46262387,	 84.24630755
	 0.5695551451,	 105.4653526
	 0.6215093131,	 115.8054242
END
BEGIN
	 0.005539932763,	 9.60489623e-010
	 0.005567590311,	 9.604459898e-010
	 0.00559511065,	 9.604029995e-010
	 0.005622495755,	 9.603606368e-010
	 0.006402132678,	 9.593067994e-010
	 0.007078983165,	 9.58581761e-010
	 0.007696646934,	 9.580335684e-010
	 0.008268090918,	 9.576010121e-010
	 0.009234830568,	 9.569961832e-010
	 0.01049100644,	 9.563874675e-010
	 0.01184051363,	 9.558939128e-010
	 0.01322678835,	 9.555137078e-010
	 0.01474133536,	 9.552109763e-010
	 0.01647423452,	 9.54980468e-010
	 0.01845502961,	 9.54844789e-010
	 0.0206750553,	 9.548379099e-010
	 0.02314089456,	 9.550025584e-010
	 0.02588897749,	 9.554037037e-010
	 0.02896815537,	 9.561444949e-010
	 0.03035497441,	 9.565869343e-010
END
BEGIN
	 0.2220881016,	 4.010575823e-008
	 0.2243091062,	 4.010352805e-008
	 0.2265301134,	 4.010131999e-008
	 0.2287511231,	 4.009913364e-008
	 0.2965590231,	 4.004102408e-008
	 0.362588394,	 3.999614385e-008
	 0.4286214584,	 3.995889955e-008
	 0.4946588691,	 3.992710426e-008
	 0.6171282957,	 3.987827247e-008
	 0.7965109989,	 3.982247708e-008
	 1.0147531050000684 ,	 3.9770295098640153e-008 
	 1.2665330023927812 ,	 3.9723482775318988e-008 
	 1.5736491876259515 ,	 3.9678853941941067e-008 
	 1.9662254502055203 ,	 3.9634802745926218e-008 
	 2.4690623778396201 ,	 3.9592208318771117e-008 
	 3.1016912534071559 ,	 3.9552838261851512e-008 
	 3.8907184104257242 ,	 3.9517951351242611e-008 
	 4.8783902115166278 ,	 3.9488370479488955e-008 
	 6.1226749139532304 ,	 3.9464899236587777e-008 
	 6.7311969361035286 ,	 3.9457105269504289e-008 
END
CITIFILE A.01.01
NAME PortSet3/TwoP0_Dsolver_data/first_odd_mode_is_1/most_even_mode_is_1/PMLG4/LS0

VAR freq MAG 20

DATA GAMMA_1[1] RI
DATA Z0_1[1,1] RI
DATA LAMBADAI_1[1,1] RI
DATA Zcir_1[1,1] RI
DATA Ycir_1[1,1] RI

VAR_LIST_BEGIN
	 100000000
	 101000000
	 102000000
	 103000000
	 133529587.1
	 163257040.5
	 192984493.9
	 222711947.3
	 277836747.2
	 358561404.8
	 456739131.4
	 569947889.3
	 707941707
	 884156282.6
	 1109528316
	 1392468667
	 1744307059
	 2182932246
	 2732497710
	 3000000000
VAR_LIST_END

BEGIN
	 0.0350836672,	 3.899685466
	 0.03534487872,	 3.938483332
	 0.03560564792,	 3.977279688
	 0.0358659812,	 4.016074552
	 0.04363215299,	 5.199825452
	 0.05092967127,	 6.351489363
	 0.0580373946,	 7.502390654
	 0.06499726218,	 8.65266679
	 0.07760695742,	 10.78433648
	 0.09556630208,	 13.90353887
	 0.1168469987,	 17.69430385
	 0.1408565623,	 22.0626927
	 0.1695850718,	 27.38471273
	 0.2056678259,	 34.17797615
	 0.2511358254,	 42.86388997
	 0.3074917166,	 53.76767269
	 0.3768434047,	 67.32940477
	 0.46262387,	 84.24630755
	 0.5695551451,	 105.4653526
	 0.6215093131,	 115.8054242
END
BEGIN
	 58.300772511222952 ,	 -0.010681886863451629 
	 58.301057323254412 ,	 -0.0093529753442406546 
	 58.301345800071154 ,	 -0.008043410578149621 
	 58.301637782013003 ,	 -0.0067527234903246485 
	 58.311628268034227 ,	 0.025459334709357608 
	 58.322099474503659 ,	 0.047777366149217279 
	 58.332452163673878 ,	 0.064766412127583883 
	 58.342394786700424 ,	 0.078271245835060912 
	 58.359524371199512 ,	 0.097369367274814864 
	 58.381678189706335 ,	 0.11702347227237893 
	 58.404777453051437 ,	 0.13358773199530161 
	 58.427468227539315 ,	 0.14716968320335164 
	 58.450978516063685 ,	 0.15917292100623412 
	 58.476324786941369 ,	 0.17029546021964573 
	 58.503551932570822 ,	 0.18056615354434905 
	 58.532393799462234 ,	 0.18987812899661097 
	 58.563222207195103 ,	 0.19829800082830412 
	 58.597409063527572 ,	 0.2060077964358272 
	 58.637506730430523 ,	 0.21318953863975715 
	 58.656846243845308 ,	 0.21605322687531742 
END
BEGIN
	 0.0350836672,	 3.899685466
	 0.03534487872,	 3.938483332
	 0.03560564792,	 3.977279688
	 0.0358659812,	 4.016074552
	 0.04363215299,	 5.199825452
	 0.05092967127,	 6.351489363
	 0.0580373946,	 7.502390654
	 0.06499726218,	 8.65266679
	 0.07760695742,	 10.78433648
	 0.09556630208,	 13.90353887
	 0.1168469987,	 17.69430385
	 0.1408565623,	 22.0626927
	 0.1695850718,	 27.38471273
	 0.2056678259,	 34.17797615
	 0.2511358254,	 42.86388997
	 0.3074917166,	 53.76767269
	 0.3768434047,	 67.32940477
	 0.46262387,	 84.24630755
	 0.5695551451,	 105.4653526
	 0.6215093131,	 115.8054242
END
BEGIN
	 0.005539932763,	 9.60489623e-010
	 0.005567590311,	 9.604459898e-010
	 0.00559511065,	 9.604029995e-010
	 0.005622495755,	 9.603606368e-010
	 0.006402132678,	 9.593067994e-010
	 0.007078983165,	 9.58581761e-010
	 0.007696646934,	 9.580335684e-010
	 0.008268090918,	 9.576010121e-010
	 0.009234830568,	 9.569961832e-010
	 0.01049100644,	 9.563874675e-010
	 0.01184051363,	 9.558939128e-010
	 0.01322678835,	 9.555137078e-010
	 0.01474133536,	 9.552109763e-010
	 0.01647423452,	 9.54980468e-010
	 0.01845502961,	 9.54844789e-010
	 0.0206750553,	 9.548379099e-010
	 0.02314089456,	 9.550025584e-010
	 0.02588897749,	 9.554037037e-010
	 0.02896815537,	 9.561444949e-010
	 0.03035497441,	 9.565869343e-010
END
BEGIN
	 0.2220881016,	 4.010575823e-008
	 0.2243091062,	 4.010352805e-008
	 0.2265301134,	 4.010131999e-008
	 0.2287511231,	 4.009913364e-008
	 0.2965590231,	 4.004102408e-008
	 0.362588394,	 3.999614385e-008
	 0.4286214584,	 3.995889955e-008
	 0.4946588691,	 3.992710426e-008
	 0.6171282957,	 3.987827247e-008
	 0.7965109989,	 3.982247708e-008
	 1.0147531050000684 ,	 3.9770295098640153e-008 
	 1.2665330023927812 ,	 3.9723482775318988e-008 
	 1.5736491876259515 ,	 3.9678853941941067e-008 
	 1.9662254502055203 ,	 3.9634802745926218e-008 
	 2.4690623778396201 ,	 3.9592208318771117e-008 
	 3.1016912534071559 ,	 3.9552838261851512e-008 
	 3.8907184104257242 ,	 3.9517951351242611e-008 
	 4.8783902115166278 ,	 3.9488370479488955e-008 
	 6.1226749139532304 ,	 3.9464899236587777e-008 
	 6.7311969361035286 ,	 3.9457105269504289e-008 
END
CITIFILE A.01.01
NAME PortSet4/TwoP0_Dsolver_data/first_odd_mode_is_1/most_even_mode_is_1/PMLG4/LS0

VAR freq MAG 20

DATA GAMMA_1[1] RI
DATA Z0_1[1,1] RI
DATA LAMBADAI_1[1,1] RI
DATA Zcir_1[1,1] RI
DATA Ycir_1[1,1] RI

VAR_LIST_BEGIN
	 100000000
	 101000000
	 102000000
	 103000000
	 133529587.1
	 163257040.5
	 192984493.9
	 222711947.3
	 277836747.2
	 358561404.8
	 456739131.4
	 569947889.3
	 707941707
	 884156282.6
	 1109528316
	 1392468667
	 1744307059
	 2182932246
	 2732497710
	 3000000000
VAR_LIST_END

BEGIN
	 0.0350836672,	 3.899685466
	 0.03534487872,	 3.938483332
	 0.03560564792,	 3.977279688
	 0.0358659812,	 4.016074552
	 0.04363215299,	 5.199825452
	 0.05092967127,	 6.351489363
	 0.0580373946,	 7.502390654
	 0.06499726218,	 8.65266679
	 0.07760695742,	 10.78433648
	 0.09556630208,	 13.90353887
	 0.1168469987,	 17.69430385
	 0.1408565623,	 22.0626927
	 0.1695850718,	 27.38471273
	 0.2056678259,	 34.17797615
	 0.2511358254,	 42.86388997
	 0.3074917166,	 53.76767269
	 0.3768434047,	 67.32940477
	 0.46262387,	 84.24630755
	 0.5695551451,	 105.4653526
	 0.6215093131,	 115.8054242
END
BEGIN
	 58.300772511222952 ,	 -0.010681886863451629 
	 58.301057323254412 ,	 -0.0093529753442406546 
	 58.301345800071154 ,	 -0.008043410578149621 
	 58.301637782013003 ,	 -0.0067527234903246485 
	 58.311628268034227 ,	 0.025459334709357608 
	 58.322099474503659 ,	 0.047777366149217279 
	 58.332452163673878 ,	 0.064766412127583883 
	 58.342394786700424 ,	 0.078271245835060912 
	 58.359524371199512 ,	 0.097369367274814864 
	 58.381678189706335 ,	 0.11702347227237893 
	 58.404777453051437 ,	 0.13358773199530161 
	 58.427468227539315 ,	 0.14716968320335164 
	 58.450978516063685 ,	 0.15917292100623412 
	 58.476324786941369 ,	 0.17029546021964573 
	 58.503551932570822 ,	 0.18056615354434905 
	 58.532393799462234 ,	 0.18987812899661097 
	 58.563222207195103 ,	 0.19829800082830412 
	 58.597409063527572 ,	 0.2060077964358272 
	 58.637506730430523 ,	 0.21318953863975715 
	 58.656846243845308 ,	 0.21605322687531742 
END
BEGIN
	 0.0350836672,	 3.899685466
	 0.03534487872,	 3.938483332
	 0.03560564792,	 3.977279688
	 0.0358659812,	 4.016074552
	 0.04363215299,	 5.199825452
	 0.05092967127,	 6.351489363
	 0.0580373946,	 7.502390654
	 0.06499726218,	 8.65266679
	 0.07760695742,	 10.78433648
	 0.09556630208,	 13.90353887
	 0.1168469987,	 17.69430385
	 0.1408565623,	 22.0626927
	 0.1695850718,	 27.38471273
	 0.2056678259,	 34.17797615
	 0.2511358254,	 42.86388997
	 0.3074917166,	 53.76767269
	 0.3768434047,	 67.32940477
	 0.46262387,	 84.24630755
	 0.5695551451,	 105.4653526
	 0.6215093131,	 115.8054242
END
BEGIN
	 0.005539932763,	 9.60489623e-010
	 0.005567590311,	 9.604459898e-010
	 0.00559511065,	 9.604029995e-010
	 0.005622495755,	 9.603606368e-010
	 0.006402132678,	 9.593067994e-010
	 0.007078983165,	 9.58581761e-010
	 0.007696646934,	 9.580335684e-010
	 0.008268090918,	 9.576010121e-010
	 0.009234830568,	 9.569961832e-010
	 0.01049100644,	 9.563874675e-010
	 0.01184051363,	 9.558939128e-010
	 0.01322678835,	 9.555137078e-010
	 0.01474133536,	 9.552109763e-010
	 0.01647423452,	 9.54980468e-010
	 0.01845502961,	 9.54844789e-010
	 0.0206750553,	 9.548379099e-010
	 0.02314089456,	 9.550025584e-010
	 0.02588897749,	 9.554037037e-010
	 0.02896815537,	 9.561444949e-010
	 0.03035497441,	 9.565869343e-010
END
BEGIN
	 0.2220881016,	 4.010575823e-008
	 0.2243091062,	 4.010352805e-008
	 0.2265301134,	 4.010131999e-008
	 0.2287511231,	 4.009913364e-008
	 0.2965590231,	 4.004102408e-008
	 0.362588394,	 3.999614385e-008
	 0.4286214584,	 3.995889955e-008
	 0.4946588691,	 3.992710426e-008
	 0.6171282957,	 3.987827247e-008
	 0.7965109989,	 3.982247708e-008
	 1.0147531050000684 ,	 3.9770295098640153e-008 
	 1.2665330023927812 ,	 3.9723482775318988e-008 
	 1.5736491876259515 ,	 3.9678853941941067e-008 
	 1.9662254502055203 ,	 3.9634802745926218e-008 
	 2.4690623778396201 ,	 3.9592208318771117e-008 
	 3.1016912534071559 ,	 3.9552838261851512e-008 
	 3.8907184104257242 ,	 3.9517951351242611e-008 
	 4.8783902115166278 ,	 3.9488370479488955e-008 
	 6.1226749139532304 ,	 3.9464899236587777e-008 
	 6.7311969361035286 ,	 3.9457105269504289e-008 
END
