CITIFILE A.01.01
#Momentum: B.09.00.103 (*) 370.600 Mar  9 2011 
#Momentum Date and Time: Wed Oct 10 17:30:12 2012

NAME Momentum.SP

#  mode: MW    project: proj    reference: S_50

CONSTANT NBR_OF_PORTS 2

CONSTANT NORMALIZATION 1.96940121

VAR freq MAG 36

DATA S[1,1] RI
DATA S[1,2] RI
DATA S[2,1] RI
DATA S[2,2] RI
DATA S_50[1,1] RI
DATA S_50[1,2] RI
DATA S_50[2,1] RI
DATA S_50[2,2] RI
DATA S_Z0[1,1] RI
DATA S_Z0[1,2] RI
DATA S_Z0[2,1] RI
DATA S_Z0[2,2] RI
DATA Z0[1] RI
DATA Z0[2] RI
DATA PORTZ[1] RI
DATA PORTZ[2] RI

VAR_LIST_BEGIN
	 100000000
	 140277777.8
	 180555555.6
	 261111111.2
	 341666666.8
	 462500000.1
	 583333333.5
	 784722222.4
	 986111111.4
	 1066666667
	 1268055556
	 1308333334
	 1388888889
	 1400823045
	 1410768175
	 1427343393
	 1430658436
	 1460493827
	 1496296296
	 1550000000
	 1630555556
	 1798379630
	 1831944445
	 1932638889
	 2033333333
	 2167592592
	 2242181070
	 2291906722
	 2391358025
	 2436111111
	 2516666667
	 2606172840
	 2695679013
	 2785185186
	 2919444445
	 3000000000
VAR_LIST_END

BEGIN
	 0.68373684,	 0.511150396
	 0.558461469,	 0.525305546
	 0.490047959,	 0.460960883
	 0.336259546,	 0.111321012
	-0.0980945174,	 0.0301513958
	-0.13588925,	 0.226446526
	-0.0275375933,	 0.162493266
	-0.0439798556,	 0.015884458
	 0.0253899595,	 0.0277560881
	 0.114882664,	-0.0137465955
	 0.155895672,	-0.29723276
	 0.118654817,	-0.339559604
	 0.0241533496,	-0.380765102
	 0.0095634891,	-0.381341319
	-0.00227431193,	-0.380633539
	-0.0217433242,	-0.377637261
	-0.0212356303,	-0.376223202
	-0.053106207,	-0.364441392
	-0.0857170728,	-0.342411967
	-0.121205,	-0.295227414
	-0.135229109,	-0.212631937
	-0.0648475968,	-0.0972990028
	-0.048270611,	-0.0909071941
	-0.0264237166,	-0.0983307324
	-0.0645638527,	-0.108371505
	-0.153572534,	-0.0594743674
	-0.190414332,	-0.0146042983
	-0.215015115,	 0.0180175365
	-0.276187327,	 0.114398405
	-0.293308715,	 0.166730188
	-0.300352704,	 0.266037376
	-0.269586837,	 0.367355314
	-0.208196216,	 0.436900275
	-0.14216077,	 0.462520405
	-0.0926856858,	 0.446382025
	-0.097227722,	 0.439329186
END
BEGIN
	 0.348966575,	-0.37458861
	 0.56121786,	-0.398870139
	 0.778730132,	-0.422184219
	 1.1305502954398667 ,	 -0.77516595663712906 
	 0.74427682,	-1.172484248
	 0.329690776,	-1.000620202
	 0.127817016,	-0.901336442
	-0.15379974,	-0.789094541
	-0.43853612,	-0.714329725
	-0.558130431,	-0.634922637
	-0.658231623,	-0.356672921
	-0.655378698,	-0.313184102
	-0.649789707,	-0.234321841
	-0.649062009,	-0.22274698
	-0.648312645,	-0.213059917
	-0.647371401,	-0.196807032
	-0.648053177,	-0.192986224
	-0.646300903,	-0.163114886
	-0.644626268,	-0.126550547
	-0.642731645,	-0.0673336953
	-0.63789492,	 0.0291432369
	-0.607305923,	 0.261660029
	-0.592658091,	 0.31062291
	-0.523750631,	 0.441262539
	-0.434098035,	 0.521312678
	-0.323468712,	 0.563999403
	-0.259262587,	 0.582689981
	-0.216679579,	 0.5924886
	-0.156181724,	 0.598665767
	-0.127771375,	 0.603287635
	-0.06643069,	 0.616755126
	 0.0241018638,	 0.635510197
	 0.140243586,	 0.647899303
	 0.275500602,	 0.641675815
	 0.487800425,	 0.57717499
	 0.602282587,	 0.500688932
END
BEGIN
	 0.348966566,	-0.374588597
	 0.561217847,	-0.398870124
	 0.778730116,	-0.422184202
	 1.1305502830681204 ,	 -0.77516593340223128 
	 0.744276819,	-1.172484234
	 0.329690772,	-1.0006202
	 0.127817009,	-0.901336443
	-0.153799742,	-0.78909454
	-0.438536091,	-0.714329719
	-0.558130373,	-0.634922643
	-0.658231803,	-0.356673012
	-0.655378803,	-0.313184098
	-0.649789739,	-0.234321827
	-0.649062036,	-0.222746967
	-0.648312668,	-0.213059905
	-0.647371419,	-0.196807022
	-0.648053193,	-0.192986214
	-0.646300914,	-0.16311488
	-0.644626274,	-0.126550543
	-0.642731646,	-0.0673336913
	-0.637894908,	 0.0291432436
	-0.607305912,	 0.261660021
	-0.592658081,	 0.310622903
	-0.523750624,	 0.441262534
	-0.434098033,	 0.521312673
	-0.323468723,	 0.563999398
	-0.25926259,	 0.582689977
	-0.216679592,	 0.592488588
	-0.156181782,	 0.59866575
	-0.12777146,	 0.603287635
	-0.0664307707,	 0.616755216
	 0.024101862,	 0.63551028
	 0.1402436,	 0.647899356
	 0.27550062,	 0.641675849
	 0.487800444,	 0.577175001
	 0.602282602,	 0.500688931
END
BEGIN
	 0.8227083,	 0.612839524
	 0.776351469,	 0.753055055
	 0.82590678,	 0.851618674
	 1.2584864184421563 ,	 0.64476881774408878 
	 1.0124118381893517 ,	 -0.16092780373069088 
	 0.311714003,	-0.225148762
	 0.122417333,	-0.0889840476
	 0.22082637,	 0.0463151181
	 0.429457168,	 0.0766759882
	 0.462432027,	 0.0334478976
	 0.286886706,	-0.0830006532
	 0.237587667,	-0.0934787527
	 0.152019236,	-0.112249458
	 0.141410275,	-0.11537206
	 0.133098947,	-0.11818361
	 0.119957393,	-0.123016851
	 0.111191942,	-0.122100101
	 0.0904837031,	-0.131880797
	 0.0695069164,	-0.145354268
	 0.0456927913,	-0.167078483
	 0.0223589075,	-0.203391861
	-0.029318714,	-0.264547082
	-0.046573706,	-0.269113326
	-0.112750671,	-0.257967463
	-0.184107446,	-0.214925606
	-0.255804802,	-0.150893428
	-0.278061508,	-0.116345245
	-0.28719581,	-0.0920315908
	-0.302024297,	-0.0468309101
	-0.307242682,	-0.0301547455
	-0.316181969,	-0.00437918491
	-0.328713039,	 0.0188614527
	-0.349540646,	 0.0369433652
	-0.384843269,	 0.0534197844
	-0.465229491,	 0.10041219
	-0.51360401,	 0.160597427
END
BEGIN
	 0.68373684,	 0.511150396
	 0.558461469,	 0.525305546
	 0.490047959,	 0.460960883
	 0.336259546,	 0.111321012
	-0.0980945174,	 0.0301513958
	-0.13588925,	 0.226446526
	-0.0275375933,	 0.162493266
	-0.0439798556,	 0.015884458
	 0.0253899595,	 0.0277560881
	 0.114882664,	-0.0137465955
	 0.155895672,	-0.29723276
	 0.118654817,	-0.339559604
	 0.0241533496,	-0.380765102
	 0.0095634891,	-0.381341319
	-0.00227431193,	-0.380633539
	-0.0217433242,	-0.377637261
	-0.0212356303,	-0.376223202
	-0.053106207,	-0.364441392
	-0.0857170728,	-0.342411967
	-0.121205,	-0.295227414
	-0.135229109,	-0.212631937
	-0.0648475968,	-0.0972990028
	-0.048270611,	-0.0909071941
	-0.0264237166,	-0.0983307324
	-0.0645638527,	-0.108371505
	-0.153572534,	-0.0594743674
	-0.190414332,	-0.0146042983
	-0.215015115,	 0.0180175365
	-0.276187327,	 0.114398405
	-0.293308715,	 0.166730188
	-0.300352704,	 0.266037376
	-0.269586837,	 0.367355314
	-0.208196216,	 0.436900275
	-0.14216077,	 0.462520405
	-0.0926856858,	 0.446382025
	-0.097227722,	 0.439329186
END
BEGIN
	 0.348966575,	-0.37458861
	 0.56121786,	-0.398870139
	 0.778730132,	-0.422184219
	 1.1305502954398667 ,	 -0.77516595663712906 
	 0.74427682,	-1.172484248
	 0.329690776,	-1.000620202
	 0.127817016,	-0.901336442
	-0.15379974,	-0.789094541
	-0.43853612,	-0.714329725
	-0.558130431,	-0.634922637
	-0.658231623,	-0.356672921
	-0.655378698,	-0.313184102
	-0.649789707,	-0.234321841
	-0.649062009,	-0.22274698
	-0.648312645,	-0.213059917
	-0.647371401,	-0.196807032
	-0.648053177,	-0.192986224
	-0.646300903,	-0.163114886
	-0.644626268,	-0.126550547
	-0.642731645,	-0.0673336953
	-0.63789492,	 0.0291432369
	-0.607305923,	 0.261660029
	-0.592658091,	 0.31062291
	-0.523750631,	 0.441262539
	-0.434098035,	 0.521312678
	-0.323468712,	 0.563999403
	-0.259262587,	 0.582689981
	-0.216679579,	 0.5924886
	-0.156181724,	 0.598665767
	-0.127771375,	 0.603287635
	-0.06643069,	 0.616755126
	 0.0241018638,	 0.635510197
	 0.140243586,	 0.647899303
	 0.275500602,	 0.641675815
	 0.487800425,	 0.57717499
	 0.602282587,	 0.500688932
END
BEGIN
	 0.348966566,	-0.374588597
	 0.561217847,	-0.398870124
	 0.778730116,	-0.422184202
	 1.1305502830681204 ,	 -0.77516593340223128 
	 0.744276819,	-1.172484234
	 0.329690772,	-1.0006202
	 0.127817009,	-0.901336443
	-0.153799742,	-0.78909454
	-0.438536091,	-0.714329719
	-0.558130373,	-0.634922643
	-0.658231803,	-0.356673012
	-0.655378803,	-0.313184098
	-0.649789739,	-0.234321827
	-0.649062036,	-0.222746967
	-0.648312668,	-0.213059905
	-0.647371419,	-0.196807022
	-0.648053193,	-0.192986214
	-0.646300914,	-0.16311488
	-0.644626274,	-0.126550543
	-0.642731646,	-0.0673336913
	-0.637894908,	 0.0291432436
	-0.607305912,	 0.261660021
	-0.592658081,	 0.310622903
	-0.523750624,	 0.441262534
	-0.434098033,	 0.521312673
	-0.323468723,	 0.563999398
	-0.25926259,	 0.582689977
	-0.216679592,	 0.592488588
	-0.156181782,	 0.59866575
	-0.12777146,	 0.603287635
	-0.0664307707,	 0.616755216
	 0.024101862,	 0.63551028
	 0.1402436,	 0.647899356
	 0.27550062,	 0.641675849
	 0.487800444,	 0.577175001
	 0.602282602,	 0.500688931
END
BEGIN
	 0.8227083,	 0.612839524
	 0.776351469,	 0.753055055
	 0.82590678,	 0.851618674
	 1.2584864184421563 ,	 0.64476881774408878 
	 1.0124118381893517 ,	 -0.16092780373069088 
	 0.311714003,	-0.225148762
	 0.122417333,	-0.0889840476
	 0.22082637,	 0.0463151181
	 0.429457168,	 0.0766759882
	 0.462432027,	 0.0334478976
	 0.286886706,	-0.0830006532
	 0.237587667,	-0.0934787527
	 0.152019236,	-0.112249458
	 0.141410275,	-0.11537206
	 0.133098947,	-0.11818361
	 0.119957393,	-0.123016851
	 0.111191942,	-0.122100101
	 0.0904837031,	-0.131880797
	 0.0695069164,	-0.145354268
	 0.0456927913,	-0.167078483
	 0.0223589075,	-0.203391861
	-0.029318714,	-0.264547082
	-0.046573706,	-0.269113326
	-0.112750671,	-0.257967463
	-0.184107446,	-0.214925606
	-0.255804802,	-0.150893428
	-0.278061508,	-0.116345245
	-0.28719581,	-0.0920315908
	-0.302024297,	-0.0468309101
	-0.307242682,	-0.0301547455
	-0.316181969,	-0.00437918491
	-0.328713039,	 0.0188614527
	-0.349540646,	 0.0369433652
	-0.384843269,	 0.0534197844
	-0.465229491,	 0.10041219
	-0.51360401,	 0.160597427
END
BEGIN
	 0.68373684,	 0.511150396
	 0.558461469,	 0.525305546
	 0.490047959,	 0.460960883
	 0.336259546,	 0.111321012
	-0.0980945174,	 0.0301513958
	-0.13588925,	 0.226446526
	-0.0275375933,	 0.162493266
	-0.0439798556,	 0.015884458
	 0.0253899595,	 0.0277560881
	 0.114882664,	-0.0137465955
	 0.155895672,	-0.29723276
	 0.118654817,	-0.339559604
	 0.0241533496,	-0.380765102
	 0.0095634891,	-0.381341319
	-0.00227431193,	-0.380633539
	-0.0217433242,	-0.377637261
	-0.0212356303,	-0.376223202
	-0.053106207,	-0.364441392
	-0.0857170728,	-0.342411967
	-0.121205,	-0.295227414
	-0.135229109,	-0.212631937
	-0.0648475968,	-0.0972990028
	-0.048270611,	-0.0909071941
	-0.0264237166,	-0.0983307324
	-0.0645638527,	-0.108371505
	-0.153572534,	-0.0594743674
	-0.190414332,	-0.0146042983
	-0.215015115,	 0.0180175365
	-0.276187327,	 0.114398405
	-0.293308715,	 0.166730188
	-0.300352704,	 0.266037376
	-0.269586837,	 0.367355314
	-0.208196216,	 0.436900275
	-0.14216077,	 0.462520405
	-0.0926856858,	 0.446382025
	-0.097227722,	 0.439329186
END
BEGIN
	 0.348966575,	-0.37458861
	 0.56121786,	-0.398870139
	 0.778730132,	-0.422184219
	 1.1305502954398667 ,	 -0.77516595663712906 
	 0.74427682,	-1.172484248
	 0.329690776,	-1.000620202
	 0.127817016,	-0.901336442
	-0.15379974,	-0.789094541
	-0.43853612,	-0.714329725
	-0.558130431,	-0.634922637
	-0.658231623,	-0.356672921
	-0.655378698,	-0.313184102
	-0.649789707,	-0.234321841
	-0.649062009,	-0.22274698
	-0.648312645,	-0.213059917
	-0.647371401,	-0.196807032
	-0.648053177,	-0.192986224
	-0.646300903,	-0.163114886
	-0.644626268,	-0.126550547
	-0.642731645,	-0.0673336953
	-0.63789492,	 0.0291432369
	-0.607305923,	 0.261660029
	-0.592658091,	 0.31062291
	-0.523750631,	 0.441262539
	-0.434098035,	 0.521312678
	-0.323468712,	 0.563999403
	-0.259262587,	 0.582689981
	-0.216679579,	 0.5924886
	-0.156181724,	 0.598665767
	-0.127771375,	 0.603287635
	-0.06643069,	 0.616755126
	 0.0241018638,	 0.635510197
	 0.140243586,	 0.647899303
	 0.275500602,	 0.641675815
	 0.487800425,	 0.57717499
	 0.602282587,	 0.500688932
END
BEGIN
	 0.348966566,	-0.374588597
	 0.561217847,	-0.398870124
	 0.778730116,	-0.422184202
	 1.1305502830681204 ,	 -0.77516593340223128 
	 0.744276819,	-1.172484234
	 0.329690772,	-1.0006202
	 0.127817009,	-0.901336443
	-0.153799742,	-0.78909454
	-0.438536091,	-0.714329719
	-0.558130373,	-0.634922643
	-0.658231803,	-0.356673012
	-0.655378803,	-0.313184098
	-0.649789739,	-0.234321827
	-0.649062036,	-0.222746967
	-0.648312668,	-0.213059905
	-0.647371419,	-0.196807022
	-0.648053193,	-0.192986214
	-0.646300914,	-0.16311488
	-0.644626274,	-0.126550543
	-0.642731646,	-0.0673336913
	-0.637894908,	 0.0291432436
	-0.607305912,	 0.261660021
	-0.592658081,	 0.310622903
	-0.523750624,	 0.441262534
	-0.434098033,	 0.521312673
	-0.323468723,	 0.563999398
	-0.25926259,	 0.582689977
	-0.216679592,	 0.592488588
	-0.156181782,	 0.59866575
	-0.12777146,	 0.603287635
	-0.0664307707,	 0.616755216
	 0.024101862,	 0.63551028
	 0.1402436,	 0.647899356
	 0.27550062,	 0.641675849
	 0.487800444,	 0.577175001
	 0.602282602,	 0.500688931
END
BEGIN
	 0.8227083,	 0.612839524
	 0.776351469,	 0.753055055
	 0.82590678,	 0.851618674
	 1.2584864184421563 ,	 0.64476881774408878 
	 1.0124118381893517 ,	 -0.16092780373069088 
	 0.311714003,	-0.225148762
	 0.122417333,	-0.0889840476
	 0.22082637,	 0.0463151181
	 0.429457168,	 0.0766759882
	 0.462432027,	 0.0334478976
	 0.286886706,	-0.0830006532
	 0.237587667,	-0.0934787527
	 0.152019236,	-0.112249458
	 0.141410275,	-0.11537206
	 0.133098947,	-0.11818361
	 0.119957393,	-0.123016851
	 0.111191942,	-0.122100101
	 0.0904837031,	-0.131880797
	 0.0695069164,	-0.145354268
	 0.0456927913,	-0.167078483
	 0.0223589075,	-0.203391861
	-0.029318714,	-0.264547082
	-0.046573706,	-0.269113326
	-0.112750671,	-0.257967463
	-0.184107446,	-0.214925606
	-0.255804802,	-0.150893428
	-0.278061508,	-0.116345245
	-0.28719581,	-0.0920315908
	-0.302024297,	-0.0468309101
	-0.307242682,	-0.0301547455
	-0.316181969,	-0.00437918491
	-0.328713039,	 0.0188614527
	-0.349540646,	 0.0369433652
	-0.384843269,	 0.0534197844
	-0.465229491,	 0.10041219
	-0.51360401,	 0.160597427
END
BEGIN
	 50 ,	 0 
	 50 ,	 0 
	 50 ,	 0 
	 50 ,	 0 
	 50 ,	 0 
	 50 ,	 0 
	 50 ,	 0 
	 50 ,	 0 
	 50 ,	 0 
	 50 ,	 0 
	 50 ,	 0 
	 50 ,	 0 
	 50 ,	 0 
	 50 ,	 0 
	 50 ,	 0 
	 50 ,	 0 
	 50 ,	 0 
	 50 ,	 0 
	 50 ,	 0 
	 50 ,	 0 
	 50 ,	 0 
	 50 ,	 0 
	 50 ,	 0 
	 50 ,	 0 
	 50 ,	 0 
	 50 ,	 0 
	 50 ,	 0 
	 50 ,	 0 
	 50 ,	 0 
	 50 ,	 0 
	 50 ,	 0 
	 50 ,	 0 
	 50 ,	 0 
	 50 ,	 0 
	 50 ,	 0 
	 50 ,	 0 
END
BEGIN
	 50 ,	 0 
	 50 ,	 0 
	 50 ,	 0 
	 50 ,	 0 
	 50 ,	 0 
	 50 ,	 0 
	 50 ,	 0 
	 50 ,	 0 
	 50 ,	 0 
	 50 ,	 0 
	 50 ,	 0 
	 50 ,	 0 
	 50 ,	 0 
	 50 ,	 0 
	 50 ,	 0 
	 50 ,	 0 
	 50 ,	 0 
	 50 ,	 0 
	 50 ,	 0 
	 50 ,	 0 
	 50 ,	 0 
	 50 ,	 0 
	 50 ,	 0 
	 50 ,	 0 
	 50 ,	 0 
	 50 ,	 0 
	 50 ,	 0 
	 50 ,	 0 
	 50 ,	 0 
	 50 ,	 0 
	 50 ,	 0 
	 50 ,	 0 
	 50 ,	 0 
	 50 ,	 0 
	 50 ,	 0 
	 50 ,	 0 
END
BEGIN
	 50 ,	 0 
	 50 ,	 0 
	 50 ,	 0 
	 50 ,	 0 
	 50 ,	 0 
	 50 ,	 0 
	 50 ,	 0 
	 50 ,	 0 
	 50 ,	 0 
	 50 ,	 0 
	 50 ,	 0 
	 50 ,	 0 
	 50 ,	 0 
	 50 ,	 0 
	 50 ,	 0 
	 50 ,	 0 
	 50 ,	 0 
	 50 ,	 0 
	 50 ,	 0 
	 50 ,	 0 
	 50 ,	 0 
	 50 ,	 0 
	 50 ,	 0 
	 50 ,	 0 
	 50 ,	 0 
	 50 ,	 0 
	 50 ,	 0 
	 50 ,	 0 
	 50 ,	 0 
	 50 ,	 0 
	 50 ,	 0 
	 50 ,	 0 
	 50 ,	 0 
	 50 ,	 0 
	 50 ,	 0 
	 50 ,	 0 
END
BEGIN
	 50 ,	 0 
	 50 ,	 0 
	 50 ,	 0 
	 50 ,	 0 
	 50 ,	 0 
	 50 ,	 0 
	 50 ,	 0 
	 50 ,	 0 
	 50 ,	 0 
	 50 ,	 0 
	 50 ,	 0 
	 50 ,	 0 
	 50 ,	 0 
	 50 ,	 0 
	 50 ,	 0 
	 50 ,	 0 
	 50 ,	 0 
	 50 ,	 0 
	 50 ,	 0 
	 50 ,	 0 
	 50 ,	 0 
	 50 ,	 0 
	 50 ,	 0 
	 50 ,	 0 
	 50 ,	 0 
	 50 ,	 0 
	 50 ,	 0 
	 50 ,	 0 
	 50 ,	 0 
	 50 ,	 0 
	 50 ,	 0 
	 50 ,	 0 
	 50 ,	 0 
	 50 ,	 0 
	 50 ,	 0 
	 50 ,	 0 
END
