CITIFILE A.01.01
#Momentum: B.09.20.456 (*) 372.600 Nov 12 2011 
#Momentum Date and Time: Wed Oct 10 20:53:21 2012

NAME Momentum.SP

#  mode: MW    project: proj    reference: S_50

CONSTANT NBR_OF_PORTS 4

CONSTANT NORMALIZATION 1

VAR freq MAG 8

DATA S[1,1] RI
DATA S[1,2] RI
DATA S[1,3] RI
DATA S[1,4] RI
DATA S[2,1] RI
DATA S[2,2] RI
DATA S[2,3] RI
DATA S[2,4] RI
DATA S[3,1] RI
DATA S[3,2] RI
DATA S[3,3] RI
DATA S[3,4] RI
DATA S[4,1] RI
DATA S[4,2] RI
DATA S[4,3] RI
DATA S[4,4] RI
DATA S_50[1,1] RI
DATA S_50[1,2] RI
DATA S_50[1,3] RI
DATA S_50[1,4] RI
DATA S_50[2,1] RI
DATA S_50[2,2] RI
DATA S_50[2,3] RI
DATA S_50[2,4] RI
DATA S_50[3,1] RI
DATA S_50[3,2] RI
DATA S_50[3,3] RI
DATA S_50[3,4] RI
DATA S_50[4,1] RI
DATA S_50[4,2] RI
DATA S_50[4,3] RI
DATA S_50[4,4] RI
DATA S_Z0[1,1] RI
DATA S_Z0[1,2] RI
DATA S_Z0[1,3] RI
DATA S_Z0[1,4] RI
DATA S_Z0[2,1] RI
DATA S_Z0[2,2] RI
DATA S_Z0[2,3] RI
DATA S_Z0[2,4] RI
DATA S_Z0[3,1] RI
DATA S_Z0[3,2] RI
DATA S_Z0[3,3] RI
DATA S_Z0[3,4] RI
DATA S_Z0[4,1] RI
DATA S_Z0[4,2] RI
DATA S_Z0[4,3] RI
DATA S_Z0[4,4] RI
DATA Z0[1] RI
DATA Z0[2] RI
DATA Z0[3] RI
DATA Z0[4] RI
DATA PORTZ[1] RI
DATA PORTZ[2] RI
DATA PORTZ[3] RI
DATA PORTZ[4] RI

VAR_LIST_BEGIN
	 100000000
	 583333333.5
	 1066666667
	 1550000000
	 2033333333
	 2355555555
	 2785185185
	 3000000000
VAR_LIST_END

BEGIN
	-0.00616186494,	-0.0280340257
	-0.112185358,	-0.0478684169
	-0.086159472,	 0.0488952417
	-0.00121239349,	-0.0216716978
	-0.0977537479,	-0.0821826935
	-0.135483688,	-0.014000995
	-0.0491110326,	 0.0342638562
	-0.00799303696,	-0.00687252066
END
BEGIN
	 0.977969913,	-0.198854153
	 0.400694608,	-0.898917943
	-0.489777568,	-0.848920634
	-0.974029175,	-0.0884254268
	-0.624172058,	 0.731998707
	-0.0735620094,	 0.951178526
	 0.659443975,	 0.686528993
	 0.881688515,	 0.352505444
END
BEGIN
	 0.00168581448,	 0.00882328393
	 0.037970878,	 0.0207320085
	 0.04603956,	-0.0192190851
	 0.00130760539,	-0.0217499617
	 0.00983020024,	 0.0247021052
	 0.0459944284,	 0.020624327
	 0.0484207358,	-0.0315761052
	 0.0193570176,	-0.0439197756
END
BEGIN
	-0.000509395278,	-0.00382343234
	-0.0228572072,	-0.0158328683
	-0.0522449989,	 0.0253602899
	-0.00525507598,	 0.0822321792
	 0.0787760598,	 0.0674649312
	 0.123702308,	 0.0126136665
	 0.111257546,	-0.108237674
	 0.0574634995,	-0.157285312
END
BEGIN
	 0.977969913,	-0.198854153
	 0.400694608,	-0.898917943
	-0.489777568,	-0.848920634
	-0.974029175,	-0.0884254268
	-0.624172058,	 0.731998707
	-0.0735620094,	 0.951178526
	 0.659443975,	 0.686528993
	 0.881688515,	 0.352505444
END
BEGIN
	-0.00616186496,	-0.0280340248
	-0.112185222,	-0.0478684022
	-0.086159238,	 0.0488946415
	-0.00121357176,	-0.0216722786
	-0.0977541552,	-0.0821808548
	-0.135481366,	-0.0139997896
	-0.0491092083,	 0.0342598588
	-0.00799486821,	-0.00687760989
END
BEGIN
	-0.000509307111,	-0.00382345112
	-0.0228560147,	-0.015835619
	-0.0522501378,	 0.0253515853
	-0.00527677035,	 0.0822305051
	 0.0787522019,	 0.0674939823
	 0.123699388,	 0.0126642405
	 0.111308304,	-0.108186724
	 0.057542044,	-0.15725551
END
BEGIN
	 0.00168581424,	 0.00882328399
	 0.0379708757,	 0.0207320146
	 0.046039566,	-0.0192190767
	 0.00130760294,	-0.021749962
	 0.00983018534,	 0.0247021275
	 0.045994431,	 0.0206243645
	 0.0484207603,	-0.0315760881
	 0.0193570321,	-0.0439197739
END
BEGIN
	 0.00168581448,	 0.00882328393
	 0.037970878,	 0.0207320085
	 0.04603956,	-0.0192190851
	 0.00130760539,	-0.0217499617
	 0.00983020024,	 0.0247021052
	 0.0459944284,	 0.020624327
	 0.0484207358,	-0.0315761052
	 0.0193570176,	-0.0439197756
END
BEGIN
	-0.000509307111,	-0.00382345112
	-0.0228560147,	-0.015835619
	-0.0522501378,	 0.0253515853
	-0.00527677035,	 0.0822305051
	 0.0787522019,	 0.0674939823
	 0.123699388,	 0.0126642405
	 0.111308304,	-0.108186724
	 0.057542044,	-0.15725551
END
BEGIN
	-0.00616186436,	-0.0280340236
	-0.112185215,	-0.0478684089
	-0.0861592521,	 0.0488946304
	-0.00121358032,	-0.0216722589
	-0.0977541284,	-0.0821808578
	-0.135481359,	-0.0139998246
	-0.0491092517,	 0.034259847
	-0.00799490814,	-0.00687758833
END
BEGIN
	 0.977969912,	-0.198854155
	 0.4006946,	-0.898917947
	-0.489777581,	-0.848920625
	-0.974029177,	-0.0884254061
	-0.624172037,	 0.731998728
	-0.0735619748,	 0.95117853
	 0.659444001,	 0.686528966
	 0.881688529,	 0.352505409
END
BEGIN
	-0.000509395278,	-0.00382343234
	-0.0228572072,	-0.0158328683
	-0.0522449989,	 0.0253602899
	-0.00525507598,	 0.0822321792
	 0.0787760598,	 0.0674649312
	 0.123702308,	 0.0126136665
	 0.111257546,	-0.108237674
	 0.0574634995,	-0.157285312
END
BEGIN
	 0.00168581424,	 0.00882328399
	 0.0379708757,	 0.0207320146
	 0.046039566,	-0.0192190767
	 0.00130760294,	-0.021749962
	 0.00983018534,	 0.0247021275
	 0.045994431,	 0.0206243645
	 0.0484207603,	-0.0315760881
	 0.0193570321,	-0.0439197739
END
BEGIN
	 0.977969912,	-0.198854155
	 0.4006946,	-0.898917947
	-0.489777581,	-0.848920625
	-0.974029177,	-0.0884254061
	-0.624172037,	 0.731998728
	-0.0735619748,	 0.95117853
	 0.659444001,	 0.686528966
	 0.881688529,	 0.352505409
END
BEGIN
	-0.00616186506,	-0.0280340242
	-0.112185359,	-0.0478684051
	-0.0861594666,	 0.0488952619
	-0.00121238947,	-0.0216716756
	-0.0977537467,	-0.0821826554
	-0.135483677,	-0.014000947
	-0.049111012,	 0.0342638993
	-0.00799302076,	-0.00687247893
END
BEGIN
	-0.00616186494,	-0.0280340257
	-0.112185358,	-0.0478684169
	-0.086159472,	 0.0488952417
	-0.00121239349,	-0.0216716978
	-0.0977537479,	-0.0821826935
	-0.135483688,	-0.014000995
	-0.0491110326,	 0.0342638562
	-0.00799303696,	-0.00687252066
END
BEGIN
	 0.977969913,	-0.198854153
	 0.400694608,	-0.898917943
	-0.489777568,	-0.848920634
	-0.974029175,	-0.0884254268
	-0.624172058,	 0.731998707
	-0.0735620094,	 0.951178526
	 0.659443975,	 0.686528993
	 0.881688515,	 0.352505444
END
BEGIN
	 0.00168581448,	 0.00882328393
	 0.037970878,	 0.0207320085
	 0.04603956,	-0.0192190851
	 0.00130760539,	-0.0217499617
	 0.00983020024,	 0.0247021052
	 0.0459944284,	 0.020624327
	 0.0484207358,	-0.0315761052
	 0.0193570176,	-0.0439197756
END
BEGIN
	-0.000509395278,	-0.00382343234
	-0.0228572072,	-0.0158328683
	-0.0522449989,	 0.0253602899
	-0.00525507598,	 0.0822321792
	 0.0787760598,	 0.0674649312
	 0.123702308,	 0.0126136665
	 0.111257546,	-0.108237674
	 0.0574634995,	-0.157285312
END
BEGIN
	 0.977969913,	-0.198854153
	 0.400694608,	-0.898917943
	-0.489777568,	-0.848920634
	-0.974029175,	-0.0884254268
	-0.624172058,	 0.731998707
	-0.0735620094,	 0.951178526
	 0.659443975,	 0.686528993
	 0.881688515,	 0.352505444
END
BEGIN
	-0.00616186496,	-0.0280340248
	-0.112185222,	-0.0478684022
	-0.086159238,	 0.0488946415
	-0.00121357176,	-0.0216722786
	-0.0977541552,	-0.0821808548
	-0.135481366,	-0.0139997896
	-0.0491092083,	 0.0342598588
	-0.00799486821,	-0.00687760989
END
BEGIN
	-0.000509307111,	-0.00382345112
	-0.0228560147,	-0.015835619
	-0.0522501378,	 0.0253515853
	-0.00527677035,	 0.0822305051
	 0.0787522019,	 0.0674939823
	 0.123699388,	 0.0126642405
	 0.111308304,	-0.108186724
	 0.057542044,	-0.15725551
END
BEGIN
	 0.00168581424,	 0.00882328399
	 0.0379708757,	 0.0207320146
	 0.046039566,	-0.0192190767
	 0.00130760294,	-0.021749962
	 0.00983018534,	 0.0247021275
	 0.045994431,	 0.0206243645
	 0.0484207603,	-0.0315760881
	 0.0193570321,	-0.0439197739
END
BEGIN
	 0.00168581448,	 0.00882328393
	 0.037970878,	 0.0207320085
	 0.04603956,	-0.0192190851
	 0.00130760539,	-0.0217499617
	 0.00983020024,	 0.0247021052
	 0.0459944284,	 0.020624327
	 0.0484207358,	-0.0315761052
	 0.0193570176,	-0.0439197756
END
BEGIN
	-0.000509307111,	-0.00382345112
	-0.0228560147,	-0.015835619
	-0.0522501378,	 0.0253515853
	-0.00527677035,	 0.0822305051
	 0.0787522019,	 0.0674939823
	 0.123699388,	 0.0126642405
	 0.111308304,	-0.108186724
	 0.057542044,	-0.15725551
END
BEGIN
	-0.00616186436,	-0.0280340236
	-0.112185215,	-0.0478684089
	-0.0861592521,	 0.0488946304
	-0.00121358032,	-0.0216722589
	-0.0977541284,	-0.0821808578
	-0.135481359,	-0.0139998246
	-0.0491092517,	 0.034259847
	-0.00799490814,	-0.00687758833
END
BEGIN
	 0.977969912,	-0.198854155
	 0.4006946,	-0.898917947
	-0.489777581,	-0.848920625
	-0.974029177,	-0.0884254061
	-0.624172037,	 0.731998728
	-0.0735619748,	 0.95117853
	 0.659444001,	 0.686528966
	 0.881688529,	 0.352505409
END
BEGIN
	-0.000509395278,	-0.00382343234
	-0.0228572072,	-0.0158328683
	-0.0522449989,	 0.0253602899
	-0.00525507598,	 0.0822321792
	 0.0787760598,	 0.0674649312
	 0.123702308,	 0.0126136665
	 0.111257546,	-0.108237674
	 0.0574634995,	-0.157285312
END
BEGIN
	 0.00168581424,	 0.00882328399
	 0.0379708757,	 0.0207320146
	 0.046039566,	-0.0192190767
	 0.00130760294,	-0.021749962
	 0.00983018534,	 0.0247021275
	 0.045994431,	 0.0206243645
	 0.0484207603,	-0.0315760881
	 0.0193570321,	-0.0439197739
END
BEGIN
	 0.977969912,	-0.198854155
	 0.4006946,	-0.898917947
	-0.489777581,	-0.848920625
	-0.974029177,	-0.0884254061
	-0.624172037,	 0.731998728
	-0.0735619748,	 0.95117853
	 0.659444001,	 0.686528966
	 0.881688529,	 0.352505409
END
BEGIN
	-0.00616186506,	-0.0280340242
	-0.112185359,	-0.0478684051
	-0.0861594666,	 0.0488952619
	-0.00121238947,	-0.0216716756
	-0.0977537467,	-0.0821826554
	-0.135483677,	-0.014000947
	-0.049111012,	 0.0342638993
	-0.00799302076,	-0.00687247893
END
BEGIN
	-0.00616186494,	-0.0280340257
	-0.112185358,	-0.0478684169
	-0.086159472,	 0.0488952417
	-0.00121239349,	-0.0216716978
	-0.0977537479,	-0.0821826935
	-0.135483688,	-0.014000995
	-0.0491110326,	 0.0342638562
	-0.00799303696,	-0.00687252066
END
BEGIN
	 0.977969913,	-0.198854153
	 0.400694608,	-0.898917943
	-0.489777568,	-0.848920634
	-0.974029175,	-0.0884254268
	-0.624172058,	 0.731998707
	-0.0735620094,	 0.951178526
	 0.659443975,	 0.686528993
	 0.881688515,	 0.352505444
END
BEGIN
	 0.00168581448,	 0.00882328393
	 0.037970878,	 0.0207320085
	 0.04603956,	-0.0192190851
	 0.00130760539,	-0.0217499617
	 0.00983020024,	 0.0247021052
	 0.0459944284,	 0.020624327
	 0.0484207358,	-0.0315761052
	 0.0193570176,	-0.0439197756
END
BEGIN
	-0.000509395278,	-0.00382343234
	-0.0228572072,	-0.0158328683
	-0.0522449989,	 0.0253602899
	-0.00525507598,	 0.0822321792
	 0.0787760598,	 0.0674649312
	 0.123702308,	 0.0126136665
	 0.111257546,	-0.108237674
	 0.0574634995,	-0.157285312
END
BEGIN
	 0.977969913,	-0.198854153
	 0.400694608,	-0.898917943
	-0.489777568,	-0.848920634
	-0.974029175,	-0.0884254268
	-0.624172058,	 0.731998707
	-0.0735620094,	 0.951178526
	 0.659443975,	 0.686528993
	 0.881688515,	 0.352505444
END
BEGIN
	-0.00616186496,	-0.0280340248
	-0.112185222,	-0.0478684022
	-0.086159238,	 0.0488946415
	-0.00121357176,	-0.0216722786
	-0.0977541552,	-0.0821808548
	-0.135481366,	-0.0139997896
	-0.0491092083,	 0.0342598588
	-0.00799486821,	-0.00687760989
END
BEGIN
	-0.000509307111,	-0.00382345112
	-0.0228560147,	-0.015835619
	-0.0522501378,	 0.0253515853
	-0.00527677035,	 0.0822305051
	 0.0787522019,	 0.0674939823
	 0.123699388,	 0.0126642405
	 0.111308304,	-0.108186724
	 0.057542044,	-0.15725551
END
BEGIN
	 0.00168581424,	 0.00882328399
	 0.0379708757,	 0.0207320146
	 0.046039566,	-0.0192190767
	 0.00130760294,	-0.021749962
	 0.00983018534,	 0.0247021275
	 0.045994431,	 0.0206243645
	 0.0484207603,	-0.0315760881
	 0.0193570321,	-0.0439197739
END
BEGIN
	 0.00168581448,	 0.00882328393
	 0.037970878,	 0.0207320085
	 0.04603956,	-0.0192190851
	 0.00130760539,	-0.0217499617
	 0.00983020024,	 0.0247021052
	 0.0459944284,	 0.020624327
	 0.0484207358,	-0.0315761052
	 0.0193570176,	-0.0439197756
END
BEGIN
	-0.000509307111,	-0.00382345112
	-0.0228560147,	-0.015835619
	-0.0522501378,	 0.0253515853
	-0.00527677035,	 0.0822305051
	 0.0787522019,	 0.0674939823
	 0.123699388,	 0.0126642405
	 0.111308304,	-0.108186724
	 0.057542044,	-0.15725551
END
BEGIN
	-0.00616186436,	-0.0280340236
	-0.112185215,	-0.0478684089
	-0.0861592521,	 0.0488946304
	-0.00121358032,	-0.0216722589
	-0.0977541284,	-0.0821808578
	-0.135481359,	-0.0139998246
	-0.0491092517,	 0.034259847
	-0.00799490814,	-0.00687758833
END
BEGIN
	 0.977969912,	-0.198854155
	 0.4006946,	-0.898917947
	-0.489777581,	-0.848920625
	-0.974029177,	-0.0884254061
	-0.624172037,	 0.731998728
	-0.0735619748,	 0.95117853
	 0.659444001,	 0.686528966
	 0.881688529,	 0.352505409
END
BEGIN
	-0.000509395278,	-0.00382343234
	-0.0228572072,	-0.0158328683
	-0.0522449989,	 0.0253602899
	-0.00525507598,	 0.0822321792
	 0.0787760598,	 0.0674649312
	 0.123702308,	 0.0126136665
	 0.111257546,	-0.108237674
	 0.0574634995,	-0.157285312
END
BEGIN
	 0.00168581424,	 0.00882328399
	 0.0379708757,	 0.0207320146
	 0.046039566,	-0.0192190767
	 0.00130760294,	-0.021749962
	 0.00983018534,	 0.0247021275
	 0.045994431,	 0.0206243645
	 0.0484207603,	-0.0315760881
	 0.0193570321,	-0.0439197739
END
BEGIN
	 0.977969912,	-0.198854155
	 0.4006946,	-0.898917947
	-0.489777581,	-0.848920625
	-0.974029177,	-0.0884254061
	-0.624172037,	 0.731998728
	-0.0735619748,	 0.95117853
	 0.659444001,	 0.686528966
	 0.881688529,	 0.352505409
END
BEGIN
	-0.00616186506,	-0.0280340242
	-0.112185359,	-0.0478684051
	-0.0861594666,	 0.0488952619
	-0.00121238947,	-0.0216716756
	-0.0977537467,	-0.0821826554
	-0.135483677,	-0.014000947
	-0.049111012,	 0.0342638993
	-0.00799302076,	-0.00687247893
END
BEGIN
	 50 ,	 0 
	 50 ,	 0 
	 50 ,	 0 
	 50 ,	 0 
	 50 ,	 0 
	 50 ,	 0 
	 50 ,	 0 
	 50 ,	 0 
END
BEGIN
	 50 ,	 0 
	 50 ,	 0 
	 50 ,	 0 
	 50 ,	 0 
	 50 ,	 0 
	 50 ,	 0 
	 50 ,	 0 
	 50 ,	 0 
END
BEGIN
	 50 ,	 0 
	 50 ,	 0 
	 50 ,	 0 
	 50 ,	 0 
	 50 ,	 0 
	 50 ,	 0 
	 50 ,	 0 
	 50 ,	 0 
END
BEGIN
	 50 ,	 0 
	 50 ,	 0 
	 50 ,	 0 
	 50 ,	 0 
	 50 ,	 0 
	 50 ,	 0 
	 50 ,	 0 
	 50 ,	 0 
END
BEGIN
	 50 ,	 0 
	 50 ,	 0 
	 50 ,	 0 
	 50 ,	 0 
	 50 ,	 0 
	 50 ,	 0 
	 50 ,	 0 
	 50 ,	 0 
END
BEGIN
	 50 ,	 0 
	 50 ,	 0 
	 50 ,	 0 
	 50 ,	 0 
	 50 ,	 0 
	 50 ,	 0 
	 50 ,	 0 
	 50 ,	 0 
END
BEGIN
	 50 ,	 0 
	 50 ,	 0 
	 50 ,	 0 
	 50 ,	 0 
	 50 ,	 0 
	 50 ,	 0 
	 50 ,	 0 
	 50 ,	 0 
END
BEGIN
	 50 ,	 0 
	 50 ,	 0 
	 50 ,	 0 
	 50 ,	 0 
	 50 ,	 0 
	 50 ,	 0 
	 50 ,	 0 
	 50 ,	 0 
END
