CITIFILE A.01.01
#Momentum: B.09.00.103 (*) 370.600 Mar  9 2011 
#Momentum Date and Time: Wed Oct 10 15:42:03 2012

NAME Momentum.SP

#  mode: MW    project: proj    reference: S_50

CONSTANT NBR_OF_PORTS 2

CONSTANT NORMALIZATION 1

VAR freq MAG 9

DATA S[1,1] RI
DATA S[1,2] RI
DATA S[2,1] RI
DATA S[2,2] RI
DATA S_50[1,1] RI
DATA S_50[1,2] RI
DATA S_50[2,1] RI
DATA S_50[2,2] RI
DATA S_Z0[1,1] RI
DATA S_Z0[1,2] RI
DATA S_Z0[2,1] RI
DATA S_Z0[2,2] RI
DATA Z0[1] RI
DATA Z0[2] RI
DATA PORTZ[1] RI
DATA PORTZ[2] RI

VAR_LIST_BEGIN
	 100000000
	 341666666.8
	 583333333.5
	 1066666667
	 1550000000
	 2033333333
	 2516666667
	 2838888889
	 3000000000
VAR_LIST_END

BEGIN
	 0.0040829928,	 0.0254407099
	 0.0475816313,	 0.0678453913
	 0.106110023,	 0.066009617
	 0.169356073,	-0.0109563123
	 0.176824183,	-0.0845637347
	 0.182468258,	-0.176009006
	 0.0985511948,	-0.323576182
	-0.0472692346,	-0.377330857
	-0.131550265,	-0.37083858
END
BEGIN
	 0.977346145,	-0.203562573
	 0.763320592,	-0.638801351
	 0.371278313,	-0.919246839
	-0.542495325,	-0.813724067
	-0.963869057,	-0.0164707188
	-0.546532793,	 0.777909772
	 0.327734768,	 0.863884939
	 0.753867178,	 0.48841986
	 0.853475838,	 0.232065161
END
BEGIN
	 0.977346145,	-0.203562573
	 0.763320592,	-0.638801351
	 0.371278313,	-0.919246839
	-0.542495325,	-0.813724067
	-0.963869057,	-0.0164707188
	-0.546532793,	 0.777909772
	 0.327734768,	 0.863884939
	 0.753867178,	 0.48841986
	 0.853475838,	 0.232065161
END
BEGIN
	 0.00598199319,	 0.025026618
	 0.0647136094,	 0.0534860149
	 0.129947801,	 0.00689540658
	 0.0612913231,	-0.17019821
	-0.168993887,	-0.0880124525
	-0.0907265798,	 0.214802517
	 0.284921409,	 0.164192254
	 0.359069805,	-0.114049803
	 0.297606602,	-0.25184846
END
BEGIN
	 0.0040829928,	 0.0254407099
	 0.0475816313,	 0.0678453913
	 0.106110023,	 0.066009617
	 0.169356073,	-0.0109563123
	 0.176824183,	-0.0845637347
	 0.182468258,	-0.176009006
	 0.0985511948,	-0.323576182
	-0.0472692346,	-0.377330857
	-0.131550265,	-0.37083858
END
BEGIN
	 0.977346145,	-0.203562573
	 0.763320592,	-0.638801351
	 0.371278313,	-0.919246839
	-0.542495325,	-0.813724067
	-0.963869057,	-0.0164707188
	-0.546532793,	 0.777909772
	 0.327734768,	 0.863884939
	 0.753867178,	 0.48841986
	 0.853475838,	 0.232065161
END
BEGIN
	 0.977346145,	-0.203562573
	 0.763320592,	-0.638801351
	 0.371278313,	-0.919246839
	-0.542495325,	-0.813724067
	-0.963869057,	-0.0164707188
	-0.546532793,	 0.777909772
	 0.327734768,	 0.863884939
	 0.753867178,	 0.48841986
	 0.853475838,	 0.232065161
END
BEGIN
	 0.00598199319,	 0.025026618
	 0.0647136094,	 0.0534860149
	 0.129947801,	 0.00689540658
	 0.0612913231,	-0.17019821
	-0.168993887,	-0.0880124525
	-0.0907265798,	 0.214802517
	 0.284921409,	 0.164192254
	 0.359069805,	-0.114049803
	 0.297606602,	-0.25184846
END
BEGIN
	 0.0040829928,	 0.0254407099
	 0.0475816313,	 0.0678453913
	 0.106110023,	 0.066009617
	 0.169356073,	-0.0109563123
	 0.176824183,	-0.0845637347
	 0.182468258,	-0.176009006
	 0.0985511948,	-0.323576182
	-0.0472692346,	-0.377330857
	-0.131550265,	-0.37083858
END
BEGIN
	 0.977346145,	-0.203562573
	 0.763320592,	-0.638801351
	 0.371278313,	-0.919246839
	-0.542495325,	-0.813724067
	-0.963869057,	-0.0164707188
	-0.546532793,	 0.777909772
	 0.327734768,	 0.863884939
	 0.753867178,	 0.48841986
	 0.853475838,	 0.232065161
END
BEGIN
	 0.977346145,	-0.203562573
	 0.763320592,	-0.638801351
	 0.371278313,	-0.919246839
	-0.542495325,	-0.813724067
	-0.963869057,	-0.0164707188
	-0.546532793,	 0.777909772
	 0.327734768,	 0.863884939
	 0.753867178,	 0.48841986
	 0.853475838,	 0.232065161
END
BEGIN
	 0.00598199319,	 0.025026618
	 0.0647136094,	 0.0534860149
	 0.129947801,	 0.00689540658
	 0.0612913231,	-0.17019821
	-0.168993887,	-0.0880124525
	-0.0907265798,	 0.214802517
	 0.284921409,	 0.164192254
	 0.359069805,	-0.114049803
	 0.297606602,	-0.25184846
END
BEGIN
	 50 ,	 0 
	 50 ,	 0 
	 50 ,	 0 
	 50 ,	 0 
	 50 ,	 0 
	 50 ,	 0 
	 50 ,	 0 
	 50 ,	 0 
	 50 ,	 0 
END
BEGIN
	 50 ,	 0 
	 50 ,	 0 
	 50 ,	 0 
	 50 ,	 0 
	 50 ,	 0 
	 50 ,	 0 
	 50 ,	 0 
	 50 ,	 0 
	 50 ,	 0 
END
BEGIN
	 50 ,	 0 
	 50 ,	 0 
	 50 ,	 0 
	 50 ,	 0 
	 50 ,	 0 
	 50 ,	 0 
	 50 ,	 0 
	 50 ,	 0 
	 50 ,	 0 
END
BEGIN
	 50 ,	 0 
	 50 ,	 0 
	 50 ,	 0 
	 50 ,	 0 
	 50 ,	 0 
	 50 ,	 0 
	 50 ,	 0 
	 50 ,	 0 
	 50 ,	 0 
END
