CITIFILE A.01.01
#Momentum: B.09.20.456 (*) 372.600 Nov 12 2011 
#Momentum Date and Time: Wed Oct 10 20:30:25 2012

NAME Momentum.SP

#  mode: MW    reference: S_50

CONSTANT NBR_OF_PORTS 2

CONSTANT NORMALIZATION 1

VAR freq MAG 81

DATA S[1,1] RI
DATA S[1,2] RI
DATA S[2,1] RI
DATA S[2,2] RI
DATA S_50[1,1] RI
DATA S_50[1,2] RI
DATA S_50[2,1] RI
DATA S_50[2,2] RI
DATA S_Z0[1,1] RI
DATA S_Z0[1,2] RI
DATA S_Z0[2,1] RI
DATA S_Z0[2,2] RI
DATA Z0[1] RI
DATA Z0[2] RI
DATA PORTZ[1] RI
DATA PORTZ[2] RI

VAR_LIST_BEGIN
	 100000000
	 130208333.3
	 160416666.7
	 190625000
	 220833333.4
	 251041666.7
	 281250000.1
	 311458333.4
	 341666666.8
	 371875000.1
	 402083333.4
	 432291666.8
	 462500000.1
	 492708333.5
	 522916666.8
	 553125000.2
	 583333333.5
	 613541666.8
	 643750000.2
	 673958333.5
	 704166666.9
	 734375000.2
	 764583333.6
	 794791666.9
	 825000000.3
	 855208333.6
	 885416666.9
	 915625000.3
	 945833333.6
	 976041667
	 1006250000
	 1036458334
	 1066666667
	 1096875000
	 1127083334
	 1157291667
	 1187500000
	 1217708334
	 1247916667
	 1278125000
	 1308333334
	 1338541667
	 1368750000
	 1398958333
	 1429166667
	 1459375000
	 1489583333
	 1519791667
	 1550000000
	 1580208333
	 1610416667
	 1640625000
	 1670833333
	 1701041667
	 1731250000
	 1761458333
	 1791666667
	 1821875000
	 1852083333
	 1882291666
	 1912500000
	 1942708333
	 1972916666
	 2003125000
	 2033333333
	 2093750000
	 2154166666
	 2214583333
	 2275000000
	 2335416666
	 2395833333
	 2456250000
	 2516666667
	 2577083333
	 2637500000
	 2697916667
	 2758333333
	 2818750000
	 2879166667
	 2939583333
	 3000000000
VAR_LIST_END

BEGIN
	 0.00046068,	 0.013843
	 0.0007133,	 0.018004
	 0.0010253,	 0.022155
	 0.0013956,	 0.026296
	 0.0018239,	 0.030427
	 0.0023101,	 0.034549
	 0.0028544,	 0.038661
	 0.0034569,	 0.042762
	 0.0041177,	 0.046852
	 0.0048368,	 0.050929
	 0.0056141,	 0.054992
	 0.0064494,	 0.059041
	 0.0073425,	 0.063074
	 0.0082933,	 0.067091
	 0.0093012,	 0.07109
	 0.010366,	 0.07507
	 0.011488,	 0.07903
	 0.012665,	 0.082969
	 0.013898,	 0.086887
	 0.015187,	 0.090781
	 0.01653,	 0.094652
	 0.017927,	 0.098498
	 0.019378,	 0.10231
	 0.020883,	 0.10611
	 0.022439,	 0.10987
	 0.024048,	 0.11361
	 0.025707,	 0.11732
	 0.027417,	 0.12099
	 0.029178,	 0.12464
	 0.030987,	 0.12825
	 0.032845,	 0.13184
	 0.034751,	 0.13538
	 0.036703,	 0.1389
	 0.038703,	 0.14237
	 0.040747,	 0.14582
	 0.042837,	 0.14922
	 0.04497,	 0.15259
	 0.047147,	 0.15592
	 0.049366,	 0.15921
	 0.051626,	 0.16246
	 0.053927,	 0.16568
	 0.056268,	 0.16885
	 0.058648,	 0.17198
	 0.061066,	 0.17507
	 0.063522,	 0.17811
	 0.066013,	 0.18112
	 0.06854,	 0.18408
	 0.071102,	 0.18699
	 0.073698,	 0.18987
	 0.076326,	 0.19269
	 0.078986,	 0.19548
	 0.081676,	 0.19822
	 0.084397,	 0.20091
	 0.087147,	 0.20355
	 0.089925,	 0.20615
	 0.09273,	 0.20871
	 0.095562,	 0.21121
	 0.098419,	 0.21367
	 0.10129,	 0.21608
	 0.1042,	 0.21845
	 0.10713,	 0.22076
	 0.11008,	 0.22303
	 0.11305,	 0.22525
	 0.11603,	 0.22742
	 0.11904,	 0.22955
	 0.12511,	 0.23365
	 0.13125,	 0.23756
	 0.13744,	 0.24127
	 0.14368,	 0.24479
	 0.14996,	 0.24811
	 0.15628,	 0.25124
	 0.16263,	 0.25418
	 0.169,	 0.25693
	 0.17539,	 0.25949
	 0.18179,	 0.26186
	 0.18819,	 0.26405
	 0.19459,	 0.26605
	 0.20098,	 0.26787
	 0.20735,	 0.26951
	 0.21371,	 0.27098
	 0.22004,	 0.27227
END
BEGIN
	 0.99937075722857183 ,	 -0.025268206367295265 
	 0.99903691908944758 ,	 -0.032870831114621246 
	 0.99862581133525408 ,	 -0.040455746283051597 
	 0.99814079045311477 ,	 -0.048023311207887998 
	 0.99758407740506783 ,	 -0.055574400760040499 
	 0.99695694241294808 ,	 -0.063109907554291689 
	 0.99625998539664173 ,	 -0.070630477270888115 
	 0.99549339586866958 ,	 -0.078136415528845926 
	 0.99465714921661263 ,	 -0.085627692808315781 
	 0.99375113754888134 ,	 -0.093103992934579161 
	 0.99277524896832192 ,	 -0.10056477326971319 
	 0.9917294112915277 ,	 -0.10800932127367457 
	 0.9906136132811254 ,	 -0.11543680176446663 
	 0.98942,	-0.12284
	 0.98817,	-0.13023
	 0.98684,	-0.1376
	 0.98545,	-0.14495
	 0.98398,	-0.15228
	 0.98245,	-0.15958
	 0.98085,	-0.16686
	 0.97918,	-0.17412
	 0.97745,	-0.18135
	 0.97565,	-0.18855
	 0.97378,	-0.19572
	 0.97184,	-0.20287
	 0.96985,	-0.20998
	 0.96778,	-0.21706
	 0.96565,	-0.22411
	 0.96346,	-0.23113
	 0.96121,	-0.23812
	 0.9589,	-0.24507
	 0.95652,	-0.25198
	 0.95409,	-0.25886
	 0.95159,	-0.2657
	 0.94904,	-0.2725
	 0.94643,	-0.27926
	 0.94376,	-0.28599
	 0.94104,	-0.29267
	 0.93826,	-0.29932
	 0.93543,	-0.30592
	 0.93254,	-0.31248
	 0.9296,	-0.319
	 0.92661,	-0.32547
	 0.92357,	-0.3319
	 0.92048,	-0.33829
	 0.91734,	-0.34463
	 0.91415,	-0.35093
	 0.91091,	-0.35718
	 0.90763,	-0.36338
	 0.9043,	-0.36954
	 0.90093,	-0.37565
	 0.89752,	-0.38171
	 0.89406,	-0.38773
	 0.89056,	-0.39369
	 0.88702,	-0.39961
	 0.88344,	-0.40548
	 0.87983,	-0.4113
	 0.87617,	-0.41707
	 0.87248,	-0.42279
	 0.86875,	-0.42846
	 0.86499,	-0.43409
	 0.86119,	-0.43966
	 0.85736,	-0.44518
	 0.85349,	-0.45065
	 0.8496,	-0.45607
	 0.84172,	-0.46676
	 0.83373,	-0.47725
	 0.82563,	-0.48753
	 0.81743,	-0.49762
	 0.80913,	-0.5075
	 0.80075,	-0.51717
	 0.79229,	-0.52665
	 0.78376,	-0.53593
	 0.77516,	-0.54501
	 0.76649,	-0.5539
	 0.75777,	-0.56259
	 0.749,	-0.57109
	 0.74019,	-0.5794
	 0.73134,	-0.58752
	 0.72245,	-0.59545
	 0.71354,	-0.6032
END
BEGIN
	 0.99937075722857183 ,	 -0.025268206367295265 
	 0.99903691908944758 ,	 -0.032870831114621246 
	 0.99862581133525408 ,	 -0.040455746283051597 
	 0.99814079045311477 ,	 -0.048023311207887998 
	 0.99758407740506783 ,	 -0.055574400760040499 
	 0.99695694241294808 ,	 -0.063109907554291689 
	 0.99625998539664173 ,	 -0.070630477270888115 
	 0.99549339586866958 ,	 -0.078136415528845926 
	 0.99465714921661263 ,	 -0.085627692808315781 
	 0.99375113754888134 ,	 -0.093103992934579161 
	 0.99277524896832192 ,	 -0.10056477326971319 
	 0.9917294112915277 ,	 -0.10800932127367457 
	 0.9906136132811254 ,	 -0.11543680176446663 
	 0.98942,	-0.12284
	 0.98817,	-0.13023
	 0.98684,	-0.1376
	 0.98545,	-0.14495
	 0.98398,	-0.15228
	 0.98245,	-0.15958
	 0.98085,	-0.16686
	 0.97918,	-0.17412
	 0.97745,	-0.18135
	 0.97565,	-0.18855
	 0.97378,	-0.19572
	 0.97184,	-0.20287
	 0.96985,	-0.20998
	 0.96778,	-0.21706
	 0.96565,	-0.22411
	 0.96346,	-0.23113
	 0.96121,	-0.23812
	 0.9589,	-0.24507
	 0.95652,	-0.25198
	 0.95409,	-0.25886
	 0.95159,	-0.2657
	 0.94904,	-0.2725
	 0.94643,	-0.27926
	 0.94376,	-0.28599
	 0.94104,	-0.29267
	 0.93826,	-0.29932
	 0.93543,	-0.30592
	 0.93254,	-0.31248
	 0.9296,	-0.319
	 0.92661,	-0.32547
	 0.92357,	-0.3319
	 0.92048,	-0.33829
	 0.91734,	-0.34463
	 0.91415,	-0.35093
	 0.91091,	-0.35718
	 0.90763,	-0.36338
	 0.9043,	-0.36954
	 0.90093,	-0.37565
	 0.89752,	-0.38171
	 0.89406,	-0.38773
	 0.89056,	-0.39369
	 0.88702,	-0.39961
	 0.88344,	-0.40548
	 0.87983,	-0.4113
	 0.87617,	-0.41707
	 0.87248,	-0.42279
	 0.86875,	-0.42846
	 0.86499,	-0.43409
	 0.86119,	-0.43966
	 0.85736,	-0.44518
	 0.85349,	-0.45065
	 0.8496,	-0.45607
	 0.84172,	-0.46676
	 0.83373,	-0.47725
	 0.82563,	-0.48753
	 0.81743,	-0.49762
	 0.80913,	-0.5075
	 0.80075,	-0.51717
	 0.79229,	-0.52665
	 0.78376,	-0.53593
	 0.77516,	-0.54501
	 0.76649,	-0.5539
	 0.75777,	-0.56259
	 0.749,	-0.57109
	 0.74019,	-0.5794
	 0.73134,	-0.58752
	 0.72245,	-0.59545
	 0.71354,	-0.6032
END
BEGIN
	 0.00047818,	 0.013842
	 0.00074309,	 0.018002
	 0.0010703,	 0.022151
	 0.0014587,	 0.026291
	 0.0019081,	 0.03042
	 0.0024186,	 0.034539
	 0.0029902,	 0.038648
	 0.0036231,	 0.042745
	 0.0043174,	 0.04683
	 0.005073,	 0.050902
	 0.0058899,	 0.054959
	 0.0067678,	 0.059001
	 0.0077066,	 0.063026
	 0.0087059,	 0.067033
	 0.0097654,	 0.071022
	 0.010885,	 0.07499
	 0.012064,	 0.078938
	 0.013301,	 0.082863
	 0.014598,	 0.086765
	 0.015952,	 0.090642
	 0.017364,	 0.094494
	 0.018832,	 0.09832
	 0.020357,	 0.10211
	 0.021938,	 0.10588
	 0.023573,	 0.10962
	 0.025264,	 0.11333
	 0.027008,	 0.11701
	 0.028804,	 0.12066
	 0.030654,	 0.12427
	 0.032555,	 0.12785
	 0.034506,	 0.13139
	 0.036508,	 0.1349
	 0.038559,	 0.13837
	 0.040659,	 0.14181
	 0.042806,	 0.1452
	 0.045001,	 0.14856
	 0.047241,	 0.15188
	 0.049526,	 0.15515
	 0.051856,	 0.15839
	 0.054229,	 0.16158
	 0.056645,	 0.16474
	 0.059102,	 0.16784
	 0.0616,	 0.17091
	 0.064138,	 0.17393
	 0.066715,	 0.1769
	 0.06933,	 0.17983
	 0.071981,	 0.18272
	 0.074669,	 0.18556
	 0.077391,	 0.18835
	 0.080148,	 0.19109
	 0.082938,	 0.19379
	 0.08576,	 0.19643
	 0.088614,	 0.19903
	 0.091497,	 0.20158
	 0.09441,	 0.20408
	 0.097351,	 0.20653
	 0.10031,	 0.20893
	 0.10331,	 0.21128
	 0.10633,	 0.21359
	 0.10937,	 0.21584
	 0.11244,	 0.21803
	 0.11553,	 0.22018
	 0.11864,	 0.22228
	 0.12177,	 0.22433
	 0.12492,	 0.22632
	 0.13128,	 0.23015
	 0.1377,	 0.23378
	 0.14418,	 0.2372
	 0.15071,	 0.24041
	 0.15729,	 0.24342
	 0.1639,	 0.24622
	 0.17054,	 0.24882
	 0.1772,	 0.25121
	 0.18387,	 0.25341
	 0.19056,	 0.2554
	 0.19724,	 0.25719
	 0.20392,	 0.25879
	 0.21059,	 0.26019
	 0.21725,	 0.26141
	 0.22388,	 0.26243
	 0.23048,	 0.26328
END
BEGIN
	 0.00046068,	 0.013843
	 0.0007133,	 0.018004
	 0.0010253,	 0.022155
	 0.0013956,	 0.026296
	 0.0018239,	 0.030427
	 0.0023101,	 0.034549
	 0.0028544,	 0.038661
	 0.0034569,	 0.042762
	 0.0041177,	 0.046852
	 0.0048368,	 0.050929
	 0.0056141,	 0.054992
	 0.0064494,	 0.059041
	 0.0073425,	 0.063074
	 0.0082933,	 0.067091
	 0.0093012,	 0.07109
	 0.010366,	 0.07507
	 0.011488,	 0.07903
	 0.012665,	 0.082969
	 0.013898,	 0.086887
	 0.015187,	 0.090781
	 0.01653,	 0.094652
	 0.017927,	 0.098498
	 0.019378,	 0.10231
	 0.020883,	 0.10611
	 0.022439,	 0.10987
	 0.024048,	 0.11361
	 0.025707,	 0.11732
	 0.027417,	 0.12099
	 0.029178,	 0.12464
	 0.030987,	 0.12825
	 0.032845,	 0.13184
	 0.034751,	 0.13538
	 0.036703,	 0.1389
	 0.038703,	 0.14237
	 0.040747,	 0.14582
	 0.042837,	 0.14922
	 0.04497,	 0.15259
	 0.047147,	 0.15592
	 0.049366,	 0.15921
	 0.051626,	 0.16246
	 0.053927,	 0.16568
	 0.056268,	 0.16885
	 0.058648,	 0.17198
	 0.061066,	 0.17507
	 0.063522,	 0.17811
	 0.066013,	 0.18112
	 0.06854,	 0.18408
	 0.071102,	 0.18699
	 0.073698,	 0.18987
	 0.076326,	 0.19269
	 0.078986,	 0.19548
	 0.081676,	 0.19822
	 0.084397,	 0.20091
	 0.087147,	 0.20355
	 0.089925,	 0.20615
	 0.09273,	 0.20871
	 0.095562,	 0.21121
	 0.098419,	 0.21367
	 0.10129,	 0.21608
	 0.1042,	 0.21845
	 0.10713,	 0.22076
	 0.11008,	 0.22303
	 0.11305,	 0.22525
	 0.11603,	 0.22742
	 0.11904,	 0.22955
	 0.12511,	 0.23365
	 0.13125,	 0.23756
	 0.13744,	 0.24127
	 0.14368,	 0.24479
	 0.14996,	 0.24811
	 0.15628,	 0.25124
	 0.16263,	 0.25418
	 0.169,	 0.25693
	 0.17539,	 0.25949
	 0.18179,	 0.26186
	 0.18819,	 0.26405
	 0.19459,	 0.26605
	 0.20098,	 0.26787
	 0.20735,	 0.26951
	 0.21371,	 0.27098
	 0.22004,	 0.27227
END
BEGIN
	 0.99937075722857183 ,	 -0.025268206367295265 
	 0.99903691908944758 ,	 -0.032870831114621246 
	 0.99862581133525408 ,	 -0.040455746283051597 
	 0.99814079045311477 ,	 -0.048023311207887998 
	 0.99758407740506783 ,	 -0.055574400760040499 
	 0.99695694241294808 ,	 -0.063109907554291689 
	 0.99625998539664173 ,	 -0.070630477270888115 
	 0.99549339586866958 ,	 -0.078136415528845926 
	 0.99465714921661263 ,	 -0.085627692808315781 
	 0.99375113754888134 ,	 -0.093103992934579161 
	 0.99277524896832192 ,	 -0.10056477326971319 
	 0.9917294112915277 ,	 -0.10800932127367457 
	 0.9906136132811254 ,	 -0.11543680176446663 
	 0.98942,	-0.12284
	 0.98817,	-0.13023
	 0.98684,	-0.1376
	 0.98545,	-0.14495
	 0.98398,	-0.15228
	 0.98245,	-0.15958
	 0.98085,	-0.16686
	 0.97918,	-0.17412
	 0.97745,	-0.18135
	 0.97565,	-0.18855
	 0.97378,	-0.19572
	 0.97184,	-0.20287
	 0.96985,	-0.20998
	 0.96778,	-0.21706
	 0.96565,	-0.22411
	 0.96346,	-0.23113
	 0.96121,	-0.23812
	 0.9589,	-0.24507
	 0.95652,	-0.25198
	 0.95409,	-0.25886
	 0.95159,	-0.2657
	 0.94904,	-0.2725
	 0.94643,	-0.27926
	 0.94376,	-0.28599
	 0.94104,	-0.29267
	 0.93826,	-0.29932
	 0.93543,	-0.30592
	 0.93254,	-0.31248
	 0.9296,	-0.319
	 0.92661,	-0.32547
	 0.92357,	-0.3319
	 0.92048,	-0.33829
	 0.91734,	-0.34463
	 0.91415,	-0.35093
	 0.91091,	-0.35718
	 0.90763,	-0.36338
	 0.9043,	-0.36954
	 0.90093,	-0.37565
	 0.89752,	-0.38171
	 0.89406,	-0.38773
	 0.89056,	-0.39369
	 0.88702,	-0.39961
	 0.88344,	-0.40548
	 0.87983,	-0.4113
	 0.87617,	-0.41707
	 0.87248,	-0.42279
	 0.86875,	-0.42846
	 0.86499,	-0.43409
	 0.86119,	-0.43966
	 0.85736,	-0.44518
	 0.85349,	-0.45065
	 0.8496,	-0.45607
	 0.84172,	-0.46676
	 0.83373,	-0.47725
	 0.82563,	-0.48753
	 0.81743,	-0.49762
	 0.80913,	-0.5075
	 0.80075,	-0.51717
	 0.79229,	-0.52665
	 0.78376,	-0.53593
	 0.77516,	-0.54501
	 0.76649,	-0.5539
	 0.75777,	-0.56259
	 0.749,	-0.57109
	 0.74019,	-0.5794
	 0.73134,	-0.58752
	 0.72245,	-0.59545
	 0.71354,	-0.6032
END
BEGIN
	 0.99937075722857183 ,	 -0.025268206367295265 
	 0.99903691908944758 ,	 -0.032870831114621246 
	 0.99862581133525408 ,	 -0.040455746283051597 
	 0.99814079045311477 ,	 -0.048023311207887998 
	 0.99758407740506783 ,	 -0.055574400760040499 
	 0.99695694241294808 ,	 -0.063109907554291689 
	 0.99625998539664173 ,	 -0.070630477270888115 
	 0.99549339586866958 ,	 -0.078136415528845926 
	 0.99465714921661263 ,	 -0.085627692808315781 
	 0.99375113754888134 ,	 -0.093103992934579161 
	 0.99277524896832192 ,	 -0.10056477326971319 
	 0.9917294112915277 ,	 -0.10800932127367457 
	 0.9906136132811254 ,	 -0.11543680176446663 
	 0.98942,	-0.12284
	 0.98817,	-0.13023
	 0.98684,	-0.1376
	 0.98545,	-0.14495
	 0.98398,	-0.15228
	 0.98245,	-0.15958
	 0.98085,	-0.16686
	 0.97918,	-0.17412
	 0.97745,	-0.18135
	 0.97565,	-0.18855
	 0.97378,	-0.19572
	 0.97184,	-0.20287
	 0.96985,	-0.20998
	 0.96778,	-0.21706
	 0.96565,	-0.22411
	 0.96346,	-0.23113
	 0.96121,	-0.23812
	 0.9589,	-0.24507
	 0.95652,	-0.25198
	 0.95409,	-0.25886
	 0.95159,	-0.2657
	 0.94904,	-0.2725
	 0.94643,	-0.27926
	 0.94376,	-0.28599
	 0.94104,	-0.29267
	 0.93826,	-0.29932
	 0.93543,	-0.30592
	 0.93254,	-0.31248
	 0.9296,	-0.319
	 0.92661,	-0.32547
	 0.92357,	-0.3319
	 0.92048,	-0.33829
	 0.91734,	-0.34463
	 0.91415,	-0.35093
	 0.91091,	-0.35718
	 0.90763,	-0.36338
	 0.9043,	-0.36954
	 0.90093,	-0.37565
	 0.89752,	-0.38171
	 0.89406,	-0.38773
	 0.89056,	-0.39369
	 0.88702,	-0.39961
	 0.88344,	-0.40548
	 0.87983,	-0.4113
	 0.87617,	-0.41707
	 0.87248,	-0.42279
	 0.86875,	-0.42846
	 0.86499,	-0.43409
	 0.86119,	-0.43966
	 0.85736,	-0.44518
	 0.85349,	-0.45065
	 0.8496,	-0.45607
	 0.84172,	-0.46676
	 0.83373,	-0.47725
	 0.82563,	-0.48753
	 0.81743,	-0.49762
	 0.80913,	-0.5075
	 0.80075,	-0.51717
	 0.79229,	-0.52665
	 0.78376,	-0.53593
	 0.77516,	-0.54501
	 0.76649,	-0.5539
	 0.75777,	-0.56259
	 0.749,	-0.57109
	 0.74019,	-0.5794
	 0.73134,	-0.58752
	 0.72245,	-0.59545
	 0.71354,	-0.6032
END
BEGIN
	 0.00047818,	 0.013842
	 0.00074309,	 0.018002
	 0.0010703,	 0.022151
	 0.0014587,	 0.026291
	 0.0019081,	 0.03042
	 0.0024186,	 0.034539
	 0.0029902,	 0.038648
	 0.0036231,	 0.042745
	 0.0043174,	 0.04683
	 0.005073,	 0.050902
	 0.0058899,	 0.054959
	 0.0067678,	 0.059001
	 0.0077066,	 0.063026
	 0.0087059,	 0.067033
	 0.0097654,	 0.071022
	 0.010885,	 0.07499
	 0.012064,	 0.078938
	 0.013301,	 0.082863
	 0.014598,	 0.086765
	 0.015952,	 0.090642
	 0.017364,	 0.094494
	 0.018832,	 0.09832
	 0.020357,	 0.10211
	 0.021938,	 0.10588
	 0.023573,	 0.10962
	 0.025264,	 0.11333
	 0.027008,	 0.11701
	 0.028804,	 0.12066
	 0.030654,	 0.12427
	 0.032555,	 0.12785
	 0.034506,	 0.13139
	 0.036508,	 0.1349
	 0.038559,	 0.13837
	 0.040659,	 0.14181
	 0.042806,	 0.1452
	 0.045001,	 0.14856
	 0.047241,	 0.15188
	 0.049526,	 0.15515
	 0.051856,	 0.15839
	 0.054229,	 0.16158
	 0.056645,	 0.16474
	 0.059102,	 0.16784
	 0.0616,	 0.17091
	 0.064138,	 0.17393
	 0.066715,	 0.1769
	 0.06933,	 0.17983
	 0.071981,	 0.18272
	 0.074669,	 0.18556
	 0.077391,	 0.18835
	 0.080148,	 0.19109
	 0.082938,	 0.19379
	 0.08576,	 0.19643
	 0.088614,	 0.19903
	 0.091497,	 0.20158
	 0.09441,	 0.20408
	 0.097351,	 0.20653
	 0.10031,	 0.20893
	 0.10331,	 0.21128
	 0.10633,	 0.21359
	 0.10937,	 0.21584
	 0.11244,	 0.21803
	 0.11553,	 0.22018
	 0.11864,	 0.22228
	 0.12177,	 0.22433
	 0.12492,	 0.22632
	 0.13128,	 0.23015
	 0.1377,	 0.23378
	 0.14418,	 0.2372
	 0.15071,	 0.24041
	 0.15729,	 0.24342
	 0.1639,	 0.24622
	 0.17054,	 0.24882
	 0.1772,	 0.25121
	 0.18387,	 0.25341
	 0.19056,	 0.2554
	 0.19724,	 0.25719
	 0.20392,	 0.25879
	 0.21059,	 0.26019
	 0.21725,	 0.26141
	 0.22388,	 0.26243
	 0.23048,	 0.26328
END
BEGIN
	 0.00046068,	 0.013843
	 0.0007133,	 0.018004
	 0.0010253,	 0.022155
	 0.0013956,	 0.026296
	 0.0018239,	 0.030427
	 0.0023101,	 0.034549
	 0.0028544,	 0.038661
	 0.0034569,	 0.042762
	 0.0041177,	 0.046852
	 0.0048368,	 0.050929
	 0.0056141,	 0.054992
	 0.0064494,	 0.059041
	 0.0073425,	 0.063074
	 0.0082933,	 0.067091
	 0.0093012,	 0.07109
	 0.010366,	 0.07507
	 0.011488,	 0.07903
	 0.012665,	 0.082969
	 0.013898,	 0.086887
	 0.015187,	 0.090781
	 0.01653,	 0.094652
	 0.017927,	 0.098498
	 0.019378,	 0.10231
	 0.020883,	 0.10611
	 0.022439,	 0.10987
	 0.024048,	 0.11361
	 0.025707,	 0.11732
	 0.027417,	 0.12099
	 0.029178,	 0.12464
	 0.030987,	 0.12825
	 0.032845,	 0.13184
	 0.034751,	 0.13538
	 0.036703,	 0.1389
	 0.038703,	 0.14237
	 0.040747,	 0.14582
	 0.042837,	 0.14922
	 0.04497,	 0.15259
	 0.047147,	 0.15592
	 0.049366,	 0.15921
	 0.051626,	 0.16246
	 0.053927,	 0.16568
	 0.056268,	 0.16885
	 0.058648,	 0.17198
	 0.061066,	 0.17507
	 0.063522,	 0.17811
	 0.066013,	 0.18112
	 0.06854,	 0.18408
	 0.071102,	 0.18699
	 0.073698,	 0.18987
	 0.076326,	 0.19269
	 0.078986,	 0.19548
	 0.081676,	 0.19822
	 0.084397,	 0.20091
	 0.087147,	 0.20355
	 0.089925,	 0.20615
	 0.09273,	 0.20871
	 0.095562,	 0.21121
	 0.098419,	 0.21367
	 0.10129,	 0.21608
	 0.1042,	 0.21845
	 0.10713,	 0.22076
	 0.11008,	 0.22303
	 0.11305,	 0.22525
	 0.11603,	 0.22742
	 0.11904,	 0.22955
	 0.12511,	 0.23365
	 0.13125,	 0.23756
	 0.13744,	 0.24127
	 0.14368,	 0.24479
	 0.14996,	 0.24811
	 0.15628,	 0.25124
	 0.16263,	 0.25418
	 0.169,	 0.25693
	 0.17539,	 0.25949
	 0.18179,	 0.26186
	 0.18819,	 0.26405
	 0.19459,	 0.26605
	 0.20098,	 0.26787
	 0.20735,	 0.26951
	 0.21371,	 0.27098
	 0.22004,	 0.27227
END
BEGIN
	 0.99937075722857183 ,	 -0.025268206367295265 
	 0.99903691908944758 ,	 -0.032870831114621246 
	 0.99862581133525408 ,	 -0.040455746283051597 
	 0.99814079045311477 ,	 -0.048023311207887998 
	 0.99758407740506783 ,	 -0.055574400760040499 
	 0.99695694241294808 ,	 -0.063109907554291689 
	 0.99625998539664173 ,	 -0.070630477270888115 
	 0.99549339586866958 ,	 -0.078136415528845926 
	 0.99465714921661263 ,	 -0.085627692808315781 
	 0.99375113754888134 ,	 -0.093103992934579161 
	 0.99277524896832192 ,	 -0.10056477326971319 
	 0.9917294112915277 ,	 -0.10800932127367457 
	 0.9906136132811254 ,	 -0.11543680176446663 
	 0.98942,	-0.12284
	 0.98817,	-0.13023
	 0.98684,	-0.1376
	 0.98545,	-0.14495
	 0.98398,	-0.15228
	 0.98245,	-0.15958
	 0.98085,	-0.16686
	 0.97918,	-0.17412
	 0.97745,	-0.18135
	 0.97565,	-0.18855
	 0.97378,	-0.19572
	 0.97184,	-0.20287
	 0.96985,	-0.20998
	 0.96778,	-0.21706
	 0.96565,	-0.22411
	 0.96346,	-0.23113
	 0.96121,	-0.23812
	 0.9589,	-0.24507
	 0.95652,	-0.25198
	 0.95409,	-0.25886
	 0.95159,	-0.2657
	 0.94904,	-0.2725
	 0.94643,	-0.27926
	 0.94376,	-0.28599
	 0.94104,	-0.29267
	 0.93826,	-0.29932
	 0.93543,	-0.30592
	 0.93254,	-0.31248
	 0.9296,	-0.319
	 0.92661,	-0.32547
	 0.92357,	-0.3319
	 0.92048,	-0.33829
	 0.91734,	-0.34463
	 0.91415,	-0.35093
	 0.91091,	-0.35718
	 0.90763,	-0.36338
	 0.9043,	-0.36954
	 0.90093,	-0.37565
	 0.89752,	-0.38171
	 0.89406,	-0.38773
	 0.89056,	-0.39369
	 0.88702,	-0.39961
	 0.88344,	-0.40548
	 0.87983,	-0.4113
	 0.87617,	-0.41707
	 0.87248,	-0.42279
	 0.86875,	-0.42846
	 0.86499,	-0.43409
	 0.86119,	-0.43966
	 0.85736,	-0.44518
	 0.85349,	-0.45065
	 0.8496,	-0.45607
	 0.84172,	-0.46676
	 0.83373,	-0.47725
	 0.82563,	-0.48753
	 0.81743,	-0.49762
	 0.80913,	-0.5075
	 0.80075,	-0.51717
	 0.79229,	-0.52665
	 0.78376,	-0.53593
	 0.77516,	-0.54501
	 0.76649,	-0.5539
	 0.75777,	-0.56259
	 0.749,	-0.57109
	 0.74019,	-0.5794
	 0.73134,	-0.58752
