CITIFILE A.01.01
#Momentum: B.09.20.456 (*) 372.600 Nov 12 2011 
#Momentum Date and Time: Wed Oct 10 21:17:12 2012

NAME Momentum.SP

#  mode: MW    project: proj    reference: S_50

CONSTANT NBR_OF_PORTS 2

CONSTANT NORMALIZATION 1

VAR freq MAG 9

DATA S[1,1] RI
DATA S[1,2] RI
DATA S[2,1] RI
DATA S[2,2] RI
DATA S_50[1,1] RI
DATA S_50[1,2] RI
DATA S_50[2,1] RI
DATA S_50[2,2] RI
DATA S_Z0[1,1] RI
DATA S_Z0[1,2] RI
DATA S_Z0[2,1] RI
DATA S_Z0[2,2] RI
DATA Z0[1] RI
DATA Z0[2] RI
DATA PORTZ[1] RI
DATA PORTZ[2] RI

VAR_LIST_BEGIN
	 100000000
	 341666666.8
	 583333333.5
	 1066666667
	 1550000000
	 2033333333
	 2516666667
	 2758333334
	 3000000000
VAR_LIST_END

BEGIN
	 0.00306747577,	 0.0166259149
	 0.0359114867,	 0.0399174435
	 0.0742618771,	 0.0246807134
	 0.0724062235,	-0.0492492568
	 0.0112769926,	-0.0469009821
	 0.0241858698,	 0.0100115724
	 0.0840954345,	-0.0131336733
	 0.0815893344,	-0.0489979029
	 0.053718333,	-0.0706035926
END
BEGIN
	 0.979842478,	-0.19218114
	 0.789432721,	-0.609520138
	 0.433087882,	-0.897448061
	-0.450341397,	-0.881926321
	-0.966151612,	-0.181053928
	-0.730395633,	 0.655450377
	 0.0789543317,	 0.975587368
	 0.497892704,	 0.837232404
	 0.805237677,	 0.533848669
END
BEGIN
	 0.979842478,	-0.19218114
	 0.789432721,	-0.609520138
	 0.433087882,	-0.897448061
	-0.450341397,	-0.881926321
	-0.966151612,	-0.181053928
	-0.730395633,	 0.655450377
	 0.0789543317,	 0.975587368
	 0.497892704,	 0.837232404
	 0.805237677,	 0.533848669
END
BEGIN
	 0.00305854648,	 0.0166278297
	 0.0358364087,	 0.039975384
	 0.0741634004,	 0.0248808543
	 0.0725255587,	-0.0490045799
	 0.0110872734,	-0.0469248046
	 0.0238390942,	 0.0103245741
	 0.0839955958,	-0.0138862243
	 0.0804611084,	-0.0507546335
	 0.0506061582,	-0.0725334362
END
BEGIN
	 0.00306747577,	 0.0166259149
	 0.0359114867,	 0.0399174435
	 0.0742618771,	 0.0246807134
	 0.0724062235,	-0.0492492568
	 0.0112769926,	-0.0469009821
	 0.0241858698,	 0.0100115724
	 0.0840954345,	-0.0131336733
	 0.0815893344,	-0.0489979029
	 0.053718333,	-0.0706035926
END
BEGIN
	 0.979842478,	-0.19218114
	 0.789432721,	-0.609520138
	 0.433087882,	-0.897448061
	-0.450341397,	-0.881926321
	-0.966151612,	-0.181053928
	-0.730395633,	 0.655450377
	 0.0789543317,	 0.975587368
	 0.497892704,	 0.837232404
	 0.805237677,	 0.533848669
END
BEGIN
	 0.979842478,	-0.19218114
	 0.789432721,	-0.609520138
	 0.433087882,	-0.897448061
	-0.450341397,	-0.881926321
	-0.966151612,	-0.181053928
	-0.730395633,	 0.655450377
	 0.0789543317,	 0.975587368
	 0.497892704,	 0.837232404
	 0.805237677,	 0.533848669
END
BEGIN
	 0.00305854648,	 0.0166278297
	 0.0358364087,	 0.039975384
	 0.0741634004,	 0.0248808543
	 0.0725255587,	-0.0490045799
	 0.0110872734,	-0.0469248046
	 0.0238390942,	 0.0103245741
	 0.0839955958,	-0.0138862243
	 0.0804611084,	-0.0507546335
	 0.0506061582,	-0.0725334362
END
BEGIN
	 0.00306747577,	 0.0166259149
	 0.0359114867,	 0.0399174435
	 0.0742618771,	 0.0246807134
	 0.0724062235,	-0.0492492568
	 0.0112769926,	-0.0469009821
	 0.0241858698,	 0.0100115724
	 0.0840954345,	-0.0131336733
	 0.0815893344,	-0.0489979029
	 0.053718333,	-0.0706035926
END
BEGIN
	 0.979842478,	-0.19218114
	 0.789432721,	-0.609520138
	 0.433087882,	-0.897448061
	-0.450341397,	-0.881926321
	-0.966151612,	-0.181053928
	-0.730395633,	 0.655450377
	 0.0789543317,	 0.975587368
	 0.497892704,	 0.837232404
	 0.805237677,	 0.533848669
END
BEGIN
	 0.979842478,	-0.19218114
	 0.789432721,	-0.609520138
	 0.433087882,	-0.897448061
	-0.450341397,	-0.881926321
	-0.966151612,	-0.181053928
	-0.730395633,	 0.655450377
	 0.0789543317,	 0.975587368
	 0.497892704,	 0.837232404
	 0.805237677,	 0.533848669
END
BEGIN
	 0.00305854648,	 0.0166278297
	 0.0358364087,	 0.039975384
	 0.0741634004,	 0.0248808543
	 0.0725255587,	-0.0490045799
	 0.0110872734,	-0.0469248046
	 0.0238390942,	 0.0103245741
	 0.0839955958,	-0.0138862243
	 0.0804611084,	-0.0507546335
	 0.0506061582,	-0.0725334362
END
BEGIN
	 50 ,	 0 
	 50 ,	 0 
	 50 ,	 0 
	 50 ,	 0 
	 50 ,	 0 
	 50 ,	 0 
	 50 ,	 0 
	 50 ,	 0 
	 50 ,	 0 
END
BEGIN
	 50 ,	 0 
	 50 ,	 0 
	 50 ,	 0 
	 50 ,	 0 
	 50 ,	 0 
	 50 ,	 0 
	 50 ,	 0 
	 50 ,	 0 
	 50 ,	 0 
END
BEGIN
	 50 ,	 0 
	 50 ,	 0 
	 50 ,	 0 
	 50 ,	 0 
	 50 ,	 0 
	 50 ,	 0 
	 50 ,	 0 
	 50 ,	 0 
	 50 ,	 0 
END
BEGIN
	 50 ,	 0 
	 50 ,	 0 
	 50 ,	 0 
	 50 ,	 0 
	 50 ,	 0 
	 50 ,	 0 
	 50 ,	 0 
	 50 ,	 0 
	 50 ,	 0 
END
