CITIFILE A.01.01
#Momentum: B.09.20.456 (*) 372.600 Nov 12 2011 
#Momentum Date and Time: Wed Oct 10 21:25:32 2012

NAME Momentum.SP

#  mode: MW    project: proj    reference: S_50

CONSTANT NBR_OF_PORTS 2

CONSTANT NORMALIZATION 1

VAR freq MAG 9

DATA S[1,1] RI
DATA S[1,2] RI
DATA S[2,1] RI
DATA S[2,2] RI
DATA S_50[1,1] RI
DATA S_50[1,2] RI
DATA S_50[2,1] RI
DATA S_50[2,2] RI
DATA S_Z0[1,1] RI
DATA S_Z0[1,2] RI
DATA S_Z0[2,1] RI
DATA S_Z0[2,2] RI
DATA Z0[1] RI
DATA Z0[2] RI
DATA PORTZ[1] RI
DATA PORTZ[2] RI

VAR_LIST_BEGIN
	 100000000
	 341666666.8
	 583333333.5
	 1066666667
	 1550000000
	 2033333333
	 2516666667
	 2838888889
	 3000000000
VAR_LIST_END

BEGIN
	 0.00490100624,	 0.0308053911
	 0.0562366895,	 0.0838020509
	 0.128218469,	 0.0863968241
	 0.220916262,	-0.00428214046
	 0.24329511,	-0.118221164
	 0.22660693,	-0.265332238
	 0.0709971966,	-0.440605782
	-0.127490231,	-0.477494195
	-0.23316212,	-0.454072146
END
BEGIN
	 0.976550024,	-0.206651365
	 0.755215115,	-0.645655256
	 0.354114641,	-0.921173437
	-0.558580395,	-0.789505415
	-0.945549668,	 0.0216179596
	-0.487469368,	 0.780529129
	 0.362414506,	 0.797710075
	 0.733200458,	 0.409205512
	 0.805020201,	 0.162555872
END
BEGIN
	 0.976550024,	-0.206651365
	 0.755215115,	-0.645655256
	 0.354114641,	-0.921173437
	-0.558580395,	-0.789505415
	-0.945549668,	 0.0216179596
	-0.487469368,	 0.780529129
	 0.362414506,	 0.797710075
	 0.733200458,	 0.409205512
	 0.805020201,	 0.162555872
END
BEGIN
	 0.00759192825,	 0.030208328
	 0.0802443811,	 0.0631867492
	 0.160323878,	 0.00226229533
	 0.0621947706,	-0.224001214
	-0.243192446,	-0.103296081
	-0.126004287,	 0.303725668
	 0.376249909,	 0.222297335
	 0.466345166,	-0.149274469
	 0.3819817,	-0.329907943
END
BEGIN
	 0.00490100624,	 0.0308053911
	 0.0562366895,	 0.0838020509
	 0.128218469,	 0.0863968241
	 0.220916262,	-0.00428214046
	 0.24329511,	-0.118221164
	 0.22660693,	-0.265332238
	 0.0709971966,	-0.440605782
	-0.127490231,	-0.477494195
	-0.23316212,	-0.454072146
END
BEGIN
	 0.976550024,	-0.206651365
	 0.755215115,	-0.645655256
	 0.354114641,	-0.921173437
	-0.558580395,	-0.789505415
	-0.945549668,	 0.0216179596
	-0.487469368,	 0.780529129
	 0.362414506,	 0.797710075
	 0.733200458,	 0.409205512
	 0.805020201,	 0.162555872
END
BEGIN
	 0.976550024,	-0.206651365
	 0.755215115,	-0.645655256
	 0.354114641,	-0.921173437
	-0.558580395,	-0.789505415
	-0.945549668,	 0.0216179596
	-0.487469368,	 0.780529129
	 0.362414506,	 0.797710075
	 0.733200458,	 0.409205512
	 0.805020201,	 0.162555872
END
BEGIN
	 0.00759192825,	 0.030208328
	 0.0802443811,	 0.0631867492
	 0.160323878,	 0.00226229533
	 0.0621947706,	-0.224001214
	-0.243192446,	-0.103296081
	-0.126004287,	 0.303725668
	 0.376249909,	 0.222297335
	 0.466345166,	-0.149274469
	 0.3819817,	-0.329907943
END
BEGIN
	 0.00490100624,	 0.0308053911
	 0.0562366895,	 0.0838020509
	 0.128218469,	 0.0863968241
	 0.220916262,	-0.00428214046
	 0.24329511,	-0.118221164
	 0.22660693,	-0.265332238
	 0.0709971966,	-0.440605782
	-0.127490231,	-0.477494195
	-0.23316212,	-0.454072146
END
BEGIN
	 0.976550024,	-0.206651365
	 0.755215115,	-0.645655256
	 0.354114641,	-0.921173437
	-0.558580395,	-0.789505415
	-0.945549668,	 0.0216179596
	-0.487469368,	 0.780529129
	 0.362414506,	 0.797710075
	 0.733200458,	 0.409205512
	 0.805020201,	 0.162555872
END
BEGIN
	 0.976550024,	-0.206651365
	 0.755215115,	-0.645655256
	 0.354114641,	-0.921173437
	-0.558580395,	-0.789505415
	-0.945549668,	 0.0216179596
	-0.487469368,	 0.780529129
	 0.362414506,	 0.797710075
	 0.733200458,	 0.409205512
	 0.805020201,	 0.162555872
END
BEGIN
	 0.00759192825,	 0.030208328
	 0.0802443811,	 0.0631867492
	 0.160323878,	 0.00226229533
	 0.0621947706,	-0.224001214
	-0.243192446,	-0.103296081
	-0.126004287,	 0.303725668
	 0.376249909,	 0.222297335
	 0.466345166,	-0.149274469
	 0.3819817,	-0.329907943
END
BEGIN
	 50 ,	 0 
	 50 ,	 0 
	 50 ,	 0 
	 50 ,	 0 
	 50 ,	 0 
	 50 ,	 0 
	 50 ,	 0 
	 50 ,	 0 
	 50 ,	 0 
END
BEGIN
	 50 ,	 0 
	 50 ,	 0 
	 50 ,	 0 
	 50 ,	 0 
	 50 ,	 0 
	 50 ,	 0 
	 50 ,	 0 
	 50 ,	 0 
	 50 ,	 0 
END
BEGIN
	 50 ,	 0 
	 50 ,	 0 
	 50 ,	 0 
	 50 ,	 0 
	 50 ,	 0 
	 50 ,	 0 
	 50 ,	 0 
	 50 ,	 0 
	 50 ,	 0 
END
BEGIN
	 50 ,	 0 
	 50 ,	 0 
	 50 ,	 0 
	 50 ,	 0 
	 50 ,	 0 
	 50 ,	 0 
	 50 ,	 0 
	 50 ,	 0 
	 50 ,	 0 
END
