CITIFILE A.01.01
#Momentum: B.09.00.103 (*) 370.600 Mar  9 2011 
#Momentum Date and Time: Wed Oct 10 15:19:22 2012

NAME Momentum.SP

#  mode: MW    project: proj    reference: S_50

CONSTANT NBR_OF_PORTS 2

CONSTANT NORMALIZATION 7.404743007

VAR freq MAG 17

DATA S[1,1] RI
DATA S[1,2] RI
DATA S[2,1] RI
DATA S[2,2] RI
DATA S_50[1,1] RI
DATA S_50[1,2] RI
DATA S_50[2,1] RI
DATA S_50[2,2] RI
DATA S_Z0[1,1] RI
DATA S_Z0[1,2] RI
DATA S_Z0[2,1] RI
DATA S_Z0[2,2] RI
DATA Z0[1] RI
DATA Z0[2] RI
DATA PORTZ[1] RI
DATA PORTZ[2] RI

VAR_LIST_BEGIN
	 100000000
	 1066666667
	 1550000000
	 1670833334
	 1731250001
	 1791666667
	 1821875001
	 1852083334
	 1867187501
	 1882291667
	 1897395834
	 1912500000
	 1942708334
	 1972916667
	 2033333333
	 2516666667
	 3000000000
VAR_LIST_END

BEGIN
	 0.0444332399,	 0.171483307
	 0.872325105,	-0.124705538
	 0.951824159,	-1.01378287
	 0.771329791,	-1.71468109
	 0.421099629,	-2.31199092
	-0.569212116,	-3.15481878
	-1.69803888,	-3.48196639
	-3.44014177,	-3.05365849
	-4.28145287,	-2.24037358
	-4.73874285,	-1.0559152
	-4.63703708,	 0.191482248
	-4.09226468,	 1.17508107
	-2.66235045,	 2.07017851
	-1.57491634,	 2.13373051
	-0.458212901,	 1.72223465
	 0.636860604,	 0.297630402
	 0.634449817,	-0.246364591
END
BEGIN
	 0.955625651,	-0.222286485
	 0.156416887,	-0.625929979
	-0.013728633,	-1.13306747
	-0.194966702,	-1.62479701
	-0.475332814,	-2.13369818
	-1.38142711,	-2.94383233
	-2.47765622,	-3.2734218
	-4.20080498,	-2.85409419
	-5.03880379,	-2.04413276
	-5.49537325,	-0.859635812
	-5.39287837,	 0.391479194
	-4.84540257,	 1.38084485
	-3.40513244,	 2.28688026
	-2.30621221,	 2.35784328
	-1.1723586,	 1.95717427
	-0.0142480896,	 0.721167894
	 0.250529118,	 0.632236089
END
BEGIN
	 0.955625651,	-0.222286485
	 0.156416887,	-0.625929979
	-0.013728633,	-1.13306747
	-0.194966702,	-1.62479701
	-0.475332814,	-2.13369818
	-1.38142711,	-2.94383233
	-2.47765622,	-3.2734218
	-4.20080498,	-2.85409419
	-5.03880379,	-2.04413276
	-5.49537325,	-0.859635812
	-5.39287837,	 0.391479194
	-4.84540257,	 1.38084485
	-3.40513244,	 2.28688026
	-2.30621221,	 2.35784328
	-1.1723586,	 1.95717427
	-0.0142480896,	 0.721167894
	 0.250529118,	 0.632236089
END
BEGIN
	 0.0445411371,	 0.171458869
	 0.873460098,	-0.130416787
	 0.949546847,	-1.01859912
	 0.777383434,	-1.71437532
	 0.438349145,	-2.31555184
	-0.540966014,	-3.17621972
	-1.67026092,	-3.52088897
	-3.42693639,	-3.11339157
	-4.28314086,	-2.30636051
	-4.75769131,	-1.12093332
	-4.67058103,	 0.134912142
	-4.13433462,	 1.13089306
	-2.70598807,	 2.04828149
	-1.61205394,	 2.12460618
	-0.482811542,	 1.72223373
	 0.633185314,	 0.293568027
	 0.629794468,	-0.255120474
END
BEGIN
	 0.0444332399,	 0.171483307
	 0.872325105,	-0.124705538
	 0.951824159,	-1.01378287
	 0.771329791,	-1.71468109
	 0.421099629,	-2.31199092
	-0.569212116,	-3.15481878
	-1.69803888,	-3.48196639
	-3.44014177,	-3.05365849
	-4.28145287,	-2.24037358
	-4.73874285,	-1.0559152
	-4.63703708,	 0.191482248
	-4.09226468,	 1.17508107
	-2.66235045,	 2.07017851
	-1.57491634,	 2.13373051
	-0.458212901,	 1.72223465
	 0.636860604,	 0.297630402
	 0.634449817,	-0.246364591
END
BEGIN
	 0.955625651,	-0.222286485
	 0.156416887,	-0.625929979
	-0.013728633,	-1.13306747
	-0.194966702,	-1.62479701
	-0.475332814,	-2.13369818
	-1.38142711,	-2.94383233
	-2.47765622,	-3.2734218
	-4.20080498,	-2.85409419
	-5.03880379,	-2.04413276
	-5.49537325,	-0.859635812
	-5.39287837,	 0.391479194
	-4.84540257,	 1.38084485
	-3.40513244,	 2.28688026
	-2.30621221,	 2.35784328
	-1.1723586,	 1.95717427
	-0.0142480896,	 0.721167894
	 0.250529118,	 0.632236089
END
BEGIN
	 0.955625651,	-0.222286485
	 0.156416887,	-0.625929979
	-0.013728633,	-1.13306747
	-0.194966702,	-1.62479701
	-0.475332814,	-2.13369818
	-1.38142711,	-2.94383233
	-2.47765622,	-3.2734218
	-4.20080498,	-2.85409419
	-5.03880379,	-2.04413276
	-5.49537325,	-0.859635812
	-5.39287837,	 0.391479194
	-4.84540257,	 1.38084485
	-3.40513244,	 2.28688026
	-2.30621221,	 2.35784328
	-1.1723586,	 1.95717427
	-0.0142480896,	 0.721167894
	 0.250529118,	 0.632236089
END
BEGIN
	 0.0445411371,	 0.171458869
	 0.873460098,	-0.130416787
	 0.949546847,	-1.01859912
	 0.777383434,	-1.71437532
	 0.438349145,	-2.31555184
	-0.540966014,	-3.17621972
	-1.67026092,	-3.52088897
	-3.42693639,	-3.11339157
	-4.28314086,	-2.30636051
	-4.75769131,	-1.12093332
	-4.67058103,	 0.134912142
	-4.13433462,	 1.13089306
	-2.70598807,	 2.04828149
	-1.61205394,	 2.12460618
	-0.482811542,	 1.72223373
	 0.633185314,	 0.293568027
	 0.629794468,	-0.255120474
END
BEGIN
	 0.0444332399,	 0.171483307
	 0.872325105,	-0.124705538
	 0.951824159,	-1.01378287
	 0.771329791,	-1.71468109
	 0.421099629,	-2.31199092
	-0.569212116,	-3.15481878
	-1.69803888,	-3.48196639
	-3.44014177,	-3.05365849
	-4.28145287,	-2.24037358
	-4.73874285,	-1.0559152
	-4.63703708,	 0.191482248
	-4.09226468,	 1.17508107
	-2.66235045,	 2.07017851
	-1.57491634,	 2.13373051
	-0.458212901,	 1.72223465
	 0.636860604,	 0.297630402
	 0.634449817,	-0.246364591
END
BEGIN
	 0.955625651,	-0.222286485
	 0.156416887,	-0.625929979
	-0.013728633,	-1.13306747
	-0.194966702,	-1.62479701
	-0.475332814,	-2.13369818
	-1.38142711,	-2.94383233
	-2.47765622,	-3.2734218
	-4.20080498,	-2.85409419
	-5.03880379,	-2.04413276
	-5.49537325,	-0.859635812
	-5.39287837,	 0.391479194
	-4.84540257,	 1.38084485
	-3.40513244,	 2.28688026
	-2.30621221,	 2.35784328
	-1.1723586,	 1.95717427
	-0.0142480896,	 0.721167894
	 0.250529118,	 0.632236089
END
BEGIN
	 0.955625651,	-0.222286485
	 0.156416887,	-0.625929979
	-0.013728633,	-1.13306747
	-0.194966702,	-1.62479701
	-0.475332814,	-2.13369818
	-1.38142711,	-2.94383233
	-2.47765622,	-3.2734218
	-4.20080498,	-2.85409419
	-5.03880379,	-2.04413276
	-5.49537325,	-0.859635812
	-5.39287837,	 0.391479194
	-4.84540257,	 1.38084485
	-3.40513244,	 2.28688026
	-2.30621221,	 2.35784328
	-1.1723586,	 1.95717427
	-0.0142480896,	 0.721167894
	 0.250529118,	 0.632236089
END
BEGIN
	 0.0445411371,	 0.171458869
	 0.873460098,	-0.130416787
	 0.949546847,	-1.01859912
	 0.777383434,	-1.71437532
	 0.438349145,	-2.31555184
	-0.540966014,	-3.17621972
	-1.67026092,	-3.52088897
	-3.42693639,	-3.11339157
	-4.28314086,	-2.30636051
	-4.75769131,	-1.12093332
	-4.67058103,	 0.134912142
	-4.13433462,	 1.13089306
	-2.70598807,	 2.04828149
	-1.61205394,	 2.12460618
	-0.482811542,	 1.72223373
	 0.633185314,	 0.293568027
	 0.629794468,	-0.255120474
END
BEGIN
	 50 ,	 0 
	 50 ,	 0 
	 50 ,	 0 
	 50 ,	 0 
	 50 ,	 0 
	 50 ,	 0 
	 50 ,	 0 
	 50 ,	 0 
	 50 ,	 0 
	 50 ,	 0 
	 50 ,	 0 
	 50 ,	 0 
	 50 ,	 0 
	 50 ,	 0 
	 50 ,	 0 
	 50 ,	 0 
	 50 ,	 0 
END
BEGIN
	 50 ,	 0 
	 50 ,	 0 
	 50 ,	 0 
	 50 ,	 0 
	 50 ,	 0 
	 50 ,	 0 
	 50 ,	 0 
	 50 ,	 0 
	 50 ,	 0 
	 50 ,	 0 
	 50 ,	 0 
	 50 ,	 0 
	 50 ,	 0 
	 50 ,	 0 
	 50 ,	 0 
	 50 ,	 0 
	 50 ,	 0 
END
BEGIN
	 50 ,	 0 
	 50 ,	 0 
	 50 ,	 0 
	 50 ,	 0 
	 50 ,	 0 
	 50 ,	 0 
	 50 ,	 0 
	 50 ,	 0 
	 50 ,	 0 
	 50 ,	 0 
	 50 ,	 0 
	 50 ,	 0 
	 50 ,	 0 
	 50 ,	 0 
	 50 ,	 0 
	 50 ,	 0 
	 50 ,	 0 
END
BEGIN
	 50 ,	 0 
	 50 ,	 0 
	 50 ,	 0 
	 50 ,	 0 
	 50 ,	 0 
	 50 ,	 0 
	 50 ,	 0 
	 50 ,	 0 
	 50 ,	 0 
	 50 ,	 0 
	 50 ,	 0 
	 50 ,	 0 
	 50 ,	 0 
	 50 ,	 0 
	 50 ,	 0 
	 50 ,	 0 
	 50 ,	 0 
END
