CITIFILE A.01.01
#Momentum: B.09.20.456 (*) 372.600 Nov 12 2011 
#Momentum Date and Time: Wed Oct 10 20:55:09 2012

NAME Momentum.SP

#  mode: MW    project: proj    reference: S_50

CONSTANT NBR_OF_PORTS 4

CONSTANT NORMALIZATION 1

VAR freq MAG 8

DATA S[1,1] RI
DATA S[1,2] RI
DATA S[1,3] RI
DATA S[1,4] RI
DATA S[2,1] RI
DATA S[2,2] RI
DATA S[2,3] RI
DATA S[2,4] RI
DATA S[3,1] RI
DATA S[3,2] RI
DATA S[3,3] RI
DATA S[3,4] RI
DATA S[4,1] RI
DATA S[4,2] RI
DATA S[4,3] RI
DATA S[4,4] RI
DATA S_50[1,1] RI
DATA S_50[1,2] RI
DATA S_50[1,3] RI
DATA S_50[1,4] RI
DATA S_50[2,1] RI
DATA S_50[2,2] RI
DATA S_50[2,3] RI
DATA S_50[2,4] RI
DATA S_50[3,1] RI
DATA S_50[3,2] RI
DATA S_50[3,3] RI
DATA S_50[3,4] RI
DATA S_50[4,1] RI
DATA S_50[4,2] RI
DATA S_50[4,3] RI
DATA S_50[4,4] RI
DATA S_Z0[1,1] RI
DATA S_Z0[1,2] RI
DATA S_Z0[1,3] RI
DATA S_Z0[1,4] RI
DATA S_Z0[2,1] RI
DATA S_Z0[2,2] RI
DATA S_Z0[2,3] RI
DATA S_Z0[2,4] RI
DATA S_Z0[3,1] RI
DATA S_Z0[3,2] RI
DATA S_Z0[3,3] RI
DATA S_Z0[3,4] RI
DATA S_Z0[4,1] RI
DATA S_Z0[4,2] RI
DATA S_Z0[4,3] RI
DATA S_Z0[4,4] RI
DATA Z0[1] RI
DATA Z0[2] RI
DATA Z0[3] RI
DATA Z0[4] RI
DATA PORTZ[1] RI
DATA PORTZ[2] RI
DATA PORTZ[3] RI
DATA PORTZ[4] RI

VAR_LIST_BEGIN
	 100000000
	 422222222.3
	 1066666667
	 1711111111
	 2033333333
	 2355555555
	 2785185185
	 3000000000
VAR_LIST_END

BEGIN
	 0.00127547655,	 0.00675579169
	 0.0213848492,	 0.0209772385
	 0.0458337715,	-0.0243743402
	-0.00261094192,	-0.0245676693
	 0.0048528377,	-0.000269200273
	 0.0327845096,	-0.000137493192
	 0.0436052853,	-0.0399081147
	 0.0275760256,	-0.0558366268
END
BEGIN
	 0.979230627,	-0.194488667
	 0.676602815,	-0.727275072
	-0.468284551,	-0.865051601
	-0.960983228,	 0.169574032
	-0.675331817,	 0.696099354
	-0.139780871,	 0.952539274
	 0.602956152,	 0.738938898
	 0.845883898,	 0.431736953
END
BEGIN
	 0.00209608606,	 0.0103272601
	 0.0296369373,	 0.0266463367
	 0.0421243573,	-0.0253980635
	 0.000439357083,	 0.00679207109
	 0.0277141883,	 0.0245309148
	 0.053404,	 0.00314162348
	 0.0294032096,	-0.0335778599
	 0.00565548807,	-0.0278254822
END
BEGIN
	-0.00116940677,	-0.00554567276
	-0.0179996038,	-0.0150689728
	-0.0471631273,	 0.0293258185
	 0.0176176991,	 0.0891920206
	 0.081264143,	 0.0750284593
	 0.128615014,	 0.0138305923
	 0.113476671,	-0.101452604
	 0.0686342733,	-0.14874588
END
BEGIN
	 0.979230627,	-0.194488667
	 0.676602815,	-0.727275072
	-0.468284551,	-0.865051601
	-0.960983228,	 0.169574032
	-0.675331817,	 0.696099354
	-0.139780871,	 0.952539274
	 0.602956152,	 0.738938898
	 0.845883898,	 0.431736953
END
BEGIN
	 0.0012754762,	 0.00675579218
	 0.0213848698,	 0.0209772562
	 0.04583386,	-0.0243746225
	-0.00261156412,	-0.0245674752
	 0.00485287086,	-0.000268372784
	 0.0327856415,	-0.000137279047
	 0.0436055086,	-0.0399099154
	 0.0275747171,	-0.0558383343
END
BEGIN
	-0.00116936896,	-0.0055456806
	-0.0179991466,	-0.0150694739
	-0.0471652281,	 0.0293220216
	 0.017606536,	 0.0891941639
	 0.0812531087,	 0.075040243
	 0.128612244,	 0.0138521805
	 0.113496482,	-0.101429158
	 0.0686664373,	-0.148730158
END
BEGIN
	 0.00209608608,	 0.0103272601
	 0.0296369379,	 0.0266463364
	 0.0421243558,	-0.0253980705
	 0.000439339651,	 0.0067920743
	 0.02771418,	 0.0245309301
	 0.053404009,	 0.00314163059
	 0.0294032038,	-0.0335778873
	 0.00565545451,	-0.0278255115
END
BEGIN
	 0.00209608606,	 0.0103272601
	 0.0296369373,	 0.0266463367
	 0.0421243573,	-0.0253980635
	 0.000439357083,	 0.00679207109
	 0.0277141883,	 0.0245309148
	 0.053404,	 0.00314162348
	 0.0294032096,	-0.0335778599
	 0.00565548807,	-0.0278254822
END
BEGIN
	-0.00116936896,	-0.0055456806
	-0.0179991466,	-0.0150694739
	-0.0471652281,	 0.0293220216
	 0.017606536,	 0.0891941639
	 0.0812531087,	 0.075040243
	 0.128612244,	 0.0138521805
	 0.113496482,	-0.101429158
	 0.0686664373,	-0.148730158
END
BEGIN
	 0.0012754769,	 0.00675579204
	 0.0213848775,	 0.0209772478
	 0.0458338427,	-0.0243746555
	-0.00261156415,	-0.0245674781
	 0.00485289771,	-0.000268405392
	 0.0327856511,	-0.000137357369
	 0.0436054557,	-0.0399099879
	 0.0275746576,	-0.0558383755
END
BEGIN
	 0.979230627,	-0.194488667
	 0.676602815,	-0.727275072
	-0.468284551,	-0.865051601
	-0.960983228,	 0.169574032
	-0.675331817,	 0.696099354
	-0.139780871,	 0.952539274
	 0.602956152,	 0.738938898
	 0.845883898,	 0.431736952
END
BEGIN
	-0.00116940677,	-0.00554567276
	-0.0179996038,	-0.0150689728
	-0.0471631273,	 0.0293258185
	 0.0176176991,	 0.0891920206
	 0.081264143,	 0.0750284593
	 0.128615014,	 0.0138305923
	 0.113476671,	-0.101452604
	 0.0686342733,	-0.14874588
END
BEGIN
	 0.00209608608,	 0.0103272601
	 0.0296369379,	 0.0266463364
	 0.0421243558,	-0.0253980705
	 0.000439339651,	 0.0067920743
	 0.02771418,	 0.0245309301
	 0.053404009,	 0.00314163059
	 0.0294032038,	-0.0335778873
	 0.00565545451,	-0.0278255115
END
BEGIN
	 0.979230627,	-0.194488667
	 0.676602815,	-0.727275072
	-0.468284551,	-0.865051601
	-0.960983228,	 0.169574032
	-0.675331817,	 0.696099354
	-0.139780871,	 0.952539274
	 0.602956152,	 0.738938898
	 0.845883898,	 0.431736952
END
BEGIN
	 0.00127547584,	 0.00675579184
	 0.0213848415,	 0.0209772469
	 0.0458337889,	-0.0243743072
	-0.00261094192,	-0.0245676665
	 0.00485281074,	-0.000269167772
	 0.0327844999,	-0.000137414906
	 0.0436053382,	-0.0399080423
	 0.0275760851,	-0.0558365858
END
BEGIN
	 0.00127547655,	 0.00675579169
	 0.0213848492,	 0.0209772385
	 0.0458337715,	-0.0243743402
	-0.00261094192,	-0.0245676693
	 0.0048528377,	-0.000269200273
	 0.0327845096,	-0.000137493192
	 0.0436052853,	-0.0399081147
	 0.0275760256,	-0.0558366268
END
BEGIN
	 0.979230627,	-0.194488667
	 0.676602815,	-0.727275072
	-0.468284551,	-0.865051601
	-0.960983228,	 0.169574032
	-0.675331817,	 0.696099354
	-0.139780871,	 0.952539274
	 0.602956152,	 0.738938898
	 0.845883898,	 0.431736953
END
BEGIN
	 0.00209608606,	 0.0103272601
	 0.0296369373,	 0.0266463367
	 0.0421243573,	-0.0253980635
	 0.000439357083,	 0.00679207109
	 0.0277141883,	 0.0245309148
	 0.053404,	 0.00314162348
	 0.0294032096,	-0.0335778599
	 0.00565548807,	-0.0278254822
END
BEGIN
	-0.00116940677,	-0.00554567276
	-0.0179996038,	-0.0150689728
	-0.0471631273,	 0.0293258185
	 0.0176176991,	 0.0891920206
	 0.081264143,	 0.0750284593
	 0.128615014,	 0.0138305923
	 0.113476671,	-0.101452604
	 0.0686342733,	-0.14874588
END
BEGIN
	 0.979230627,	-0.194488667
	 0.676602815,	-0.727275072
	-0.468284551,	-0.865051601
	-0.960983228,	 0.169574032
	-0.675331817,	 0.696099354
	-0.139780871,	 0.952539274
	 0.602956152,	 0.738938898
	 0.845883898,	 0.431736953
END
BEGIN
	 0.0012754762,	 0.00675579218
	 0.0213848698,	 0.0209772562
	 0.04583386,	-0.0243746225
	-0.00261156412,	-0.0245674752
	 0.00485287086,	-0.000268372784
	 0.0327856415,	-0.000137279047
	 0.0436055086,	-0.0399099154
	 0.0275747171,	-0.0558383343
END
BEGIN
	-0.00116936896,	-0.0055456806
	-0.0179991466,	-0.0150694739
	-0.0471652281,	 0.0293220216
	 0.017606536,	 0.0891941639
	 0.0812531087,	 0.075040243
	 0.128612244,	 0.0138521805
	 0.113496482,	-0.101429158
	 0.0686664373,	-0.148730158
END
BEGIN
	 0.00209608608,	 0.0103272601
	 0.0296369379,	 0.0266463364
	 0.0421243558,	-0.0253980705
	 0.000439339651,	 0.0067920743
	 0.02771418,	 0.0245309301
	 0.053404009,	 0.00314163059
	 0.0294032038,	-0.0335778873
	 0.00565545451,	-0.0278255115
END
BEGIN
	 0.00209608606,	 0.0103272601
	 0.0296369373,	 0.0266463367
	 0.0421243573,	-0.0253980635
	 0.000439357083,	 0.00679207109
	 0.0277141883,	 0.0245309148
	 0.053404,	 0.00314162348
	 0.0294032096,	-0.0335778599
	 0.00565548807,	-0.0278254822
END
BEGIN
	-0.00116936896,	-0.0055456806
	-0.0179991466,	-0.0150694739
	-0.0471652281,	 0.0293220216
	 0.017606536,	 0.0891941639
	 0.0812531087,	 0.075040243
	 0.128612244,	 0.0138521805
	 0.113496482,	-0.101429158
	 0.0686664373,	-0.148730158
END
BEGIN
	 0.0012754769,	 0.00675579204
	 0.0213848775,	 0.0209772478
	 0.0458338427,	-0.0243746555
	-0.00261156415,	-0.0245674781
	 0.00485289771,	-0.000268405392
	 0.0327856511,	-0.000137357369
	 0.0436054557,	-0.0399099879
	 0.0275746576,	-0.0558383755
END
BEGIN
	 0.979230627,	-0.194488667
	 0.676602815,	-0.727275072
	-0.468284551,	-0.865051601
	-0.960983228,	 0.169574032
	-0.675331817,	 0.696099354
	-0.139780871,	 0.952539274
	 0.602956152,	 0.738938898
	 0.845883898,	 0.431736952
END
BEGIN
	-0.00116940677,	-0.00554567276
	-0.0179996038,	-0.0150689728
	-0.0471631273,	 0.0293258185
	 0.0176176991,	 0.0891920206
	 0.081264143,	 0.0750284593
	 0.128615014,	 0.0138305923
	 0.113476671,	-0.101452604
	 0.0686342733,	-0.14874588
END
BEGIN
	 0.00209608608,	 0.0103272601
	 0.0296369379,	 0.0266463364
	 0.0421243558,	-0.0253980705
	 0.000439339651,	 0.0067920743
	 0.02771418,	 0.0245309301
	 0.053404009,	 0.00314163059
	 0.0294032038,	-0.0335778873
	 0.00565545451,	-0.0278255115
END
BEGIN
	 0.979230627,	-0.194488667
	 0.676602815,	-0.727275072
	-0.468284551,	-0.865051601
	-0.960983228,	 0.169574032
	-0.675331817,	 0.696099354
	-0.139780871,	 0.952539274
	 0.602956152,	 0.738938898
	 0.845883898,	 0.431736952
END
BEGIN
	 0.00127547584,	 0.00675579184
	 0.0213848415,	 0.0209772469
	 0.0458337889,	-0.0243743072
	-0.00261094192,	-0.0245676665
	 0.00485281074,	-0.000269167772
	 0.0327844999,	-0.000137414906
	 0.0436053382,	-0.0399080423
	 0.0275760851,	-0.0558365858
END
BEGIN
	 0.00127547655,	 0.00675579169
	 0.0213848492,	 0.0209772385
	 0.0458337715,	-0.0243743402
	-0.00261094192,	-0.0245676693
	 0.0048528377,	-0.000269200273
	 0.0327845096,	-0.000137493192
	 0.0436052853,	-0.0399081147
	 0.0275760256,	-0.0558366268
END
BEGIN
	 0.979230627,	-0.194488667
	 0.676602815,	-0.727275072
	-0.468284551,	-0.865051601
	-0.960983228,	 0.169574032
	-0.675331817,	 0.696099354
	-0.139780871,	 0.952539274
	 0.602956152,	 0.738938898
	 0.845883898,	 0.431736953
END
BEGIN
	 0.00209608606,	 0.0103272601
	 0.0296369373,	 0.0266463367
	 0.0421243573,	-0.0253980635
	 0.000439357083,	 0.00679207109
	 0.0277141883,	 0.0245309148
	 0.053404,	 0.00314162348
	 0.0294032096,	-0.0335778599
	 0.00565548807,	-0.0278254822
END
BEGIN
	-0.00116940677,	-0.00554567276
	-0.0179996038,	-0.0150689728
	-0.0471631273,	 0.0293258185
	 0.0176176991,	 0.0891920206
	 0.081264143,	 0.0750284593
	 0.128615014,	 0.0138305923
	 0.113476671,	-0.101452604
	 0.0686342733,	-0.14874588
END
BEGIN
	 0.979230627,	-0.194488667
	 0.676602815,	-0.727275072
	-0.468284551,	-0.865051601
	-0.960983228,	 0.169574032
	-0.675331817,	 0.696099354
	-0.139780871,	 0.952539274
	 0.602956152,	 0.738938898
	 0.845883898,	 0.431736953
END
BEGIN
	 0.0012754762,	 0.00675579218
	 0.0213848698,	 0.0209772562
	 0.04583386,	-0.0243746225
	-0.00261156412,	-0.0245674752
	 0.00485287086,	-0.000268372784
	 0.0327856415,	-0.000137279047
	 0.0436055086,	-0.0399099154
	 0.0275747171,	-0.0558383343
END
BEGIN
	-0.00116936896,	-0.0055456806
	-0.0179991466,	-0.0150694739
	-0.0471652281,	 0.0293220216
	 0.017606536,	 0.0891941639
	 0.0812531087,	 0.075040243
	 0.128612244,	 0.0138521805
	 0.113496482,	-0.101429158
	 0.0686664373,	-0.148730158
END
BEGIN
	 0.00209608608,	 0.0103272601
	 0.0296369379,	 0.0266463364
	 0.0421243558,	-0.0253980705
	 0.000439339651,	 0.0067920743
	 0.02771418,	 0.0245309301
	 0.053404009,	 0.00314163059
	 0.0294032038,	-0.0335778873
	 0.00565545451,	-0.0278255115
END
BEGIN
	 0.00209608606,	 0.0103272601
	 0.0296369373,	 0.0266463367
	 0.0421243573,	-0.0253980635
	 0.000439357083,	 0.00679207109
	 0.0277141883,	 0.0245309148
	 0.053404,	 0.00314162348
	 0.0294032096,	-0.0335778599
	 0.00565548807,	-0.0278254822
END
BEGIN
	-0.00116936896,	-0.0055456806
	-0.0179991466,	-0.0150694739
	-0.0471652281,	 0.0293220216
	 0.017606536,	 0.0891941639
	 0.0812531087,	 0.075040243
	 0.128612244,	 0.0138521805
	 0.113496482,	-0.101429158
	 0.0686664373,	-0.148730158
END
BEGIN
	 0.0012754769,	 0.00675579204
	 0.0213848775,	 0.0209772478
	 0.0458338427,	-0.0243746555
	-0.00261156415,	-0.0245674781
	 0.00485289771,	-0.000268405392
	 0.0327856511,	-0.000137357369
	 0.0436054557,	-0.0399099879
	 0.0275746576,	-0.0558383755
END
BEGIN
	 0.979230627,	-0.194488667
	 0.676602815,	-0.727275072
	-0.468284551,	-0.865051601
	-0.960983228,	 0.169574032
	-0.675331817,	 0.696099354
	-0.139780871,	 0.952539274
	 0.602956152,	 0.738938898
	 0.845883898,	 0.431736952
END
BEGIN
	-0.00116940677,	-0.00554567276
	-0.0179996038,	-0.0150689728
	-0.0471631273,	 0.0293258185
	 0.0176176991,	 0.0891920206
	 0.081264143,	 0.0750284593
	 0.128615014,	 0.0138305923
	 0.113476671,	-0.101452604
	 0.0686342733,	-0.14874588
END
BEGIN
	 0.00209608608,	 0.0103272601
	 0.0296369379,	 0.0266463364
	 0.0421243558,	-0.0253980705
	 0.000439339651,	 0.0067920743
	 0.02771418,	 0.0245309301
	 0.053404009,	 0.00314163059
	 0.0294032038,	-0.0335778873
	 0.00565545451,	-0.0278255115
END
BEGIN
	 0.979230627,	-0.194488667
	 0.676602815,	-0.727275072
	-0.468284551,	-0.865051601
	-0.960983228,	 0.169574032
	-0.675331817,	 0.696099354
	-0.139780871,	 0.952539274
	 0.602956152,	 0.738938898
	 0.845883898,	 0.431736952
END
BEGIN
	 0.00127547584,	 0.00675579184
	 0.0213848415,	 0.0209772469
	 0.0458337889,	-0.0243743072
	-0.00261094192,	-0.0245676665
	 0.00485281074,	-0.000269167772
	 0.0327844999,	-0.000137414906
	 0.0436053382,	-0.0399080423
	 0.0275760851,	-0.0558365858
END
BEGIN
	 50 ,	 0 
	 50 ,	 0 
	 50 ,	 0 
	 50 ,	 0 
	 50 ,	 0 
	 50 ,	 0 
	 50 ,	 0 
	 50 ,	 0 
END
BEGIN
	 50 ,	 0 
	 50 ,	 0 
	 50 ,	 0 
	 50 ,	 0 
	 50 ,	 0 
	 50 ,	 0 
	 50 ,	 0 
	 50 ,	 0 
END
BEGIN
	 50 ,	 0 
	 50 ,	 0 
	 50 ,	 0 
	 50 ,	 0 
	 50 ,	 0 
	 50 ,	 0 
	 50 ,	 0 
	 50 ,	 0 
END
BEGIN
	 50 ,	 0 
	 50 ,	 0 
	 50 ,	 0 
	 50 ,	 0 
	 50 ,	 0 
	 50 ,	 0 
	 50 ,	 0 
	 50 ,	 0 
END
BEGIN
	 50 ,	 0 
	 50 ,	 0 
	 50 ,	 0 
	 50 ,	 0 
	 50 ,	 0 
	 50 ,	 0 
	 50 ,	 0 
	 50 ,	 0 
END
BEGIN
	 50 ,	 0 
	 50 ,	 0 
	 50 ,	 0 
	 50 ,	 0 
	 50 ,	 0 
	 50 ,	 0 
	 50 ,	 0 
	 50 ,	 0 
END
BEGIN
	 50 ,	 0 
	 50 ,	 0 
	 50 ,	 0 
	 50 ,	 0 
	 50 ,	 0 
	 50 ,	 0 
	 50 ,	 0 
	 50 ,	 0 
END
BEGIN
	 50 ,	 0 
	 50 ,	 0 
	 50 ,	 0 
	 50 ,	 0 
	 50 ,	 0 
	 50 ,	 0 
	 50 ,	 0 
	 50 ,	 0 
END
