CITIFILE A.01.01
#Momentum: B.09.00.103 (*) 370.600 Mar  9 2011 
#Momentum Date and Time: Wed Oct 10 14:58:48 2012

NAME Momentum.SP

#  mode: MW    project: proj    reference: S_50

CONSTANT NBR_OF_PORTS 4

CONSTANT NORMALIZATION 1

VAR freq MAG 8

DATA S[1,1] RI
DATA S[1,2] RI
DATA S[1,3] RI
DATA S[1,4] RI
DATA S[2,1] RI
DATA S[2,2] RI
DATA S[2,3] RI
DATA S[2,4] RI
DATA S[3,1] RI
DATA S[3,2] RI
DATA S[3,3] RI
DATA S[3,4] RI
DATA S[4,1] RI
DATA S[4,2] RI
DATA S[4,3] RI
DATA S[4,4] RI
DATA S_50[1,1] RI
DATA S_50[1,2] RI
DATA S_50[1,3] RI
DATA S_50[1,4] RI
DATA S_50[2,1] RI
DATA S_50[2,2] RI
DATA S_50[2,3] RI
DATA S_50[2,4] RI
DATA S_50[3,1] RI
DATA S_50[3,2] RI
DATA S_50[3,3] RI
DATA S_50[3,4] RI
DATA S_50[4,1] RI
DATA S_50[4,2] RI
DATA S_50[4,3] RI
DATA S_50[4,4] RI
DATA S_Z0[1,1] RI
DATA S_Z0[1,2] RI
DATA S_Z0[1,3] RI
DATA S_Z0[1,4] RI
DATA S_Z0[2,1] RI
DATA S_Z0[2,2] RI
DATA S_Z0[2,3] RI
DATA S_Z0[2,4] RI
DATA S_Z0[3,1] RI
DATA S_Z0[3,2] RI
DATA S_Z0[3,3] RI
DATA S_Z0[3,4] RI
DATA S_Z0[4,1] RI
DATA S_Z0[4,2] RI
DATA S_Z0[4,3] RI
DATA S_Z0[4,4] RI
DATA Z0[1] RI
DATA Z0[2] RI
DATA Z0[3] RI
DATA Z0[4] RI
DATA PORTZ[1] RI
DATA PORTZ[2] RI
DATA PORTZ[3] RI
DATA PORTZ[4] RI

VAR_LIST_BEGIN
	 100000000
	 422222222.3
	 744444444.7
	 1066666667
	 1711111111
	 2033333333
	 2677777778
	 3000000000
VAR_LIST_END

BEGIN
	 0.00107863064,	 0.00605382125
	 0.0189010294,	 0.0199712138
	 0.0431181,	 0.0084230016
	 0.0463082982,	-0.0214910962
	-0.00385940013,	-0.0289028561
	-0.00180680232,	-0.00118334076
	 0.0505257122,	-0.0223948711
	 0.0344314895,	-0.0583820128
END
BEGIN
	 0.979408685,	-0.19394456
	 0.678761278,	-0.72677801
	 0.126915983,	-0.982213579
	-0.467733622,	-0.868489851
	-0.965808314,	 0.16518859
	-0.684892867,	 0.696156871
	 0.438058318,	 0.862880148
	 0.854065149,	 0.44513146
END
BEGIN
	 0.000318743761,	 0.0015510039
	 0.00444109875,	 0.00399284541
	 0.00809762667,	 0.000805220336
	 0.00634739626,	-0.00368789007
	 0.000490542754,	 0.000412174393
	 0.00369576263,	 0.00239959846
	 0.00381953747,	-0.00313795108
	 0.000194495241,	-0.00153068903
END
BEGIN
	-0.000216600057,	-0.00101340862
	-0.00331871504,	-0.00283015892
	-0.00765243055,	-0.000466671094
	-0.00931203874,	 0.00597552273
	 0.00467702371,	 0.0182451494
	 0.0179574592,	 0.0147250307
	 0.0270226992,	-0.0174812614
	 0.0135228806,	-0.0341824459
END
BEGIN
	 0.979408685,	-0.19394456
	 0.678761278,	-0.72677801
	 0.126915983,	-0.982213579
	-0.467733622,	-0.868489851
	-0.965808314,	 0.16518859
	-0.684892867,	 0.696156871
	 0.438058318,	 0.862880148
	 0.854065149,	 0.44513146
END
BEGIN
	 0.00107862698,	 0.00605382198
	 0.0189009903,	 0.0199712564
	 0.0431180833,	 0.00842314252
	 0.0463083907,	-0.0214909286
	-0.00385940476,	-0.0289028533
	-0.00180696298,	-0.0011831673
	 0.0505259702,	-0.022394399
	 0.0344318776,	-0.0583818277
END
BEGIN
	-0.000216600105,	-0.00101340861
	-0.00331871563,	-0.00283015829
	-0.0076524309,	-0.000466668455
	-0.00931203621,	 0.00597552744
	 0.00467703617,	 0.0182451472
	 0.017957471,	 0.0147250186
	 0.0270226878,	-0.0174812835
	 0.0135228558,	-0.0341824587
END
BEGIN
	 0.000318740518,	 0.00155100456
	 0.00444106295,	 0.00399288442
	 0.00809761149,	 0.000805349442
	 0.0063474813,	-0.00368773692
	 0.000490535325,	 0.000412177225
	 0.00369561472,	 0.00239975883
	 0.00381977972,	-0.00313751311
	 0.000194863345,	-0.00153051625
END
BEGIN
	 0.000318743761,	 0.0015510039
	 0.00444109875,	 0.00399284541
	 0.00809762667,	 0.000805220336
	 0.00634739626,	-0.00368789007
	 0.000490542754,	 0.000412174393
	 0.00369576263,	 0.00239959846
	 0.00381953747,	-0.00313795108
	 0.000194495241,	-0.00153068903
END
BEGIN
	-0.000216600105,	-0.00101340861
	-0.00331871563,	-0.00283015829
	-0.0076524309,	-0.000466668455
	-0.00931203621,	 0.00597552744
	 0.00467703617,	 0.0182451472
	 0.017957471,	 0.0147250186
	 0.0270226878,	-0.0174812835
	 0.0135228558,	-0.0341824587
END
BEGIN
	 0.00108140858,	 0.00606804972
	 0.0189420103,	 0.0200086894
	 0.0431955198,	 0.00843123714
	 0.0463720168,	-0.0215286554
	-0.00386188204,	-0.0289022025
	-0.00177363018,	-0.00115080106
	 0.0505956281,	-0.0224410488
	 0.0344476471,	-0.0584411434
END
BEGIN
	 0.979407414,	-0.193951037
	 0.678740197,	-0.72679584
	 0.126869169,	-0.982216207
	-0.467788839,	-0.868455548
	-0.965789603,	 0.165293857
	-0.684798099,	 0.696248854
	 0.438215249,	 0.862793052
	 0.854152462,	 0.444949893
END
BEGIN
	-0.000216600057,	-0.00101340862
	-0.00331871504,	-0.00283015892
	-0.00765243055,	-0.000466671094
	-0.00931203874,	 0.00597552273
	 0.00467702371,	 0.0182451494
	 0.0179574592,	 0.0147250307
	 0.0270226992,	-0.0174812614
	 0.0135228806,	-0.0341824459
END
BEGIN
	 0.000318740518,	 0.00155100456
	 0.00444106295,	 0.00399288442
	 0.00809761149,	 0.000805349442
	 0.0063474813,	-0.00368773692
	 0.000490535325,	 0.000412177225
	 0.00369561472,	 0.00239975883
	 0.00381977972,	-0.00313751311
	 0.000194863345,	-0.00153051625
END
BEGIN
	 0.979407414,	-0.193951037
	 0.678740197,	-0.72679584
	 0.126869169,	-0.982216207
	-0.467788839,	-0.868455548
	-0.965789603,	 0.165293857
	-0.684798099,	 0.696248854
	 0.438215249,	 0.862793052
	 0.854152462,	 0.444949893
END
BEGIN
	 0.00108140518,	 0.00606805041
	 0.0189419727,	 0.0200087303
	 0.0431955037,	 0.00843137236
	 0.0463721053,	-0.0215284954
	-0.00386189065,	-0.0289021992
	-0.0017737838,	-0.0011506349
	 0.0505958732,	-0.0224406025
	 0.0344480159,	-0.0584409686
END
BEGIN
	 0.00107863064,	 0.00605382125
	 0.0189010294,	 0.0199712138
	 0.0431181,	 0.0084230016
	 0.0463082982,	-0.0214910962
	-0.00385940013,	-0.0289028561
	-0.00180680232,	-0.00118334076
	 0.0505257122,	-0.0223948711
	 0.0344314895,	-0.0583820128
END
BEGIN
	 0.979408685,	-0.19394456
	 0.678761278,	-0.72677801
	 0.126915983,	-0.982213579
	-0.467733622,	-0.868489851
	-0.965808314,	 0.16518859
	-0.684892867,	 0.696156871
	 0.438058318,	 0.862880148
	 0.854065149,	 0.44513146
END
BEGIN
	 0.000318743761,	 0.0015510039
	 0.00444109875,	 0.00399284541
	 0.00809762667,	 0.000805220336
	 0.00634739626,	-0.00368789007
	 0.000490542754,	 0.000412174393
	 0.00369576263,	 0.00239959846
	 0.00381953747,	-0.00313795108
	 0.000194495241,	-0.00153068903
END
BEGIN
	-0.000216600057,	-0.00101340862
	-0.00331871504,	-0.00283015892
	-0.00765243055,	-0.000466671094
	-0.00931203874,	 0.00597552273
	 0.00467702371,	 0.0182451494
	 0.0179574592,	 0.0147250307
	 0.0270226992,	-0.0174812614
	 0.0135228806,	-0.0341824459
END
BEGIN
	 0.979408685,	-0.19394456
	 0.678761278,	-0.72677801
	 0.126915983,	-0.982213579
	-0.467733622,	-0.868489851
	-0.965808314,	 0.16518859
	-0.684892867,	 0.696156871
	 0.438058318,	 0.862880148
	 0.854065149,	 0.44513146
END
BEGIN
	 0.00107862698,	 0.00605382198
	 0.0189009903,	 0.0199712564
	 0.0431180833,	 0.00842314252
	 0.0463083907,	-0.0214909286
	-0.00385940476,	-0.0289028533
	-0.00180696298,	-0.0011831673
	 0.0505259702,	-0.022394399
	 0.0344318776,	-0.0583818277
END
BEGIN
	-0.000216600105,	-0.00101340861
	-0.00331871563,	-0.00283015829
	-0.0076524309,	-0.000466668455
	-0.00931203621,	 0.00597552744
	 0.00467703617,	 0.0182451472
	 0.017957471,	 0.0147250186
	 0.0270226878,	-0.0174812835
	 0.0135228558,	-0.0341824587
END
BEGIN
	 0.000318740518,	 0.00155100456
	 0.00444106295,	 0.00399288442
	 0.00809761149,	 0.000805349442
	 0.0063474813,	-0.00368773692
	 0.000490535325,	 0.000412177225
	 0.00369561472,	 0.00239975883
	 0.00381977972,	-0.00313751311
	 0.000194863345,	-0.00153051625
END
BEGIN
	 0.000318743761,	 0.0015510039
	 0.00444109875,	 0.00399284541
	 0.00809762667,	 0.000805220336
	 0.00634739626,	-0.00368789007
	 0.000490542754,	 0.000412174393
	 0.00369576263,	 0.00239959846
	 0.00381953747,	-0.00313795108
	 0.000194495241,	-0.00153068903
END
BEGIN
	-0.000216600105,	-0.00101340861
	-0.00331871563,	-0.00283015829
	-0.0076524309,	-0.000466668455
	-0.00931203621,	 0.00597552744
	 0.00467703617,	 0.0182451472
	 0.017957471,	 0.0147250186
	 0.0270226878,	-0.0174812835
	 0.0135228558,	-0.0341824587
END
BEGIN
	 0.00108140858,	 0.00606804972
	 0.0189420103,	 0.0200086894
	 0.0431955198,	 0.00843123714
	 0.0463720168,	-0.0215286554
	-0.00386188204,	-0.0289022025
	-0.00177363018,	-0.00115080106
	 0.0505956281,	-0.0224410488
	 0.0344476471,	-0.0584411434
END
BEGIN
	 0.979407414,	-0.193951037
	 0.678740197,	-0.72679584
	 0.126869169,	-0.982216207
	-0.467788839,	-0.868455548
	-0.965789603,	 0.165293857
	-0.684798099,	 0.696248854
	 0.438215249,	 0.862793052
	 0.854152462,	 0.444949893
END
BEGIN
	-0.000216600057,	-0.00101340862
	-0.00331871504,	-0.00283015892
	-0.00765243055,	-0.000466671094
	-0.00931203874,	 0.00597552273
	 0.00467702371,	 0.0182451494
	 0.0179574592,	 0.0147250307
	 0.0270226992,	-0.0174812614
	 0.0135228806,	-0.0341824459
END
BEGIN
	 0.000318740518,	 0.00155100456
	 0.00444106295,	 0.00399288442
	 0.00809761149,	 0.000805349442
	 0.0063474813,	-0.00368773692
	 0.000490535325,	 0.000412177225
	 0.00369561472,	 0.00239975883
	 0.00381977972,	-0.00313751311
	 0.000194863345,	-0.00153051625
END
BEGIN
	 0.979407414,	-0.193951037
	 0.678740197,	-0.72679584
	 0.126869169,	-0.982216207
	-0.467788839,	-0.868455548
	-0.965789603,	 0.165293857
	-0.684798099,	 0.696248854
	 0.438215249,	 0.862793052
	 0.854152462,	 0.444949893
END
BEGIN
	 0.00108140518,	 0.00606805041
	 0.0189419727,	 0.0200087303
	 0.0431955037,	 0.00843137236
	 0.0463721053,	-0.0215284954
	-0.00386189065,	-0.0289021992
	-0.0017737838,	-0.0011506349
	 0.0505958732,	-0.0224406025
	 0.0344480159,	-0.0584409686
END
BEGIN
	 0.00107863064,	 0.00605382125
	 0.0189010294,	 0.0199712138
	 0.0431181,	 0.0084230016
	 0.0463082982,	-0.0214910962
	-0.00385940013,	-0.0289028561
	-0.00180680232,	-0.00118334076
	 0.0505257122,	-0.0223948711
	 0.0344314895,	-0.0583820128
END
BEGIN
	 0.979408685,	-0.19394456
	 0.678761278,	-0.72677801
	 0.126915983,	-0.982213579
	-0.467733622,	-0.868489851
	-0.965808314,	 0.16518859
	-0.684892867,	 0.696156871
	 0.438058318,	 0.862880148
	 0.854065149,	 0.44513146
END
BEGIN
	 0.000318743761,	 0.0015510039
	 0.00444109875,	 0.00399284541
	 0.00809762667,	 0.000805220336
	 0.00634739626,	-0.00368789007
	 0.000490542754,	 0.000412174393
	 0.00369576263,	 0.00239959846
	 0.00381953747,	-0.00313795108
	 0.000194495241,	-0.00153068903
END
BEGIN
	-0.000216600057,	-0.00101340862
	-0.00331871504,	-0.00283015892
	-0.00765243055,	-0.000466671094
	-0.00931203874,	 0.00597552273
	 0.00467702371,	 0.0182451494
	 0.0179574592,	 0.0147250307
	 0.0270226992,	-0.0174812614
	 0.0135228806,	-0.0341824459
END
BEGIN
	 0.979408685,	-0.19394456
	 0.678761278,	-0.72677801
	 0.126915983,	-0.982213579
	-0.467733622,	-0.868489851
	-0.965808314,	 0.16518859
	-0.684892867,	 0.696156871
	 0.438058318,	 0.862880148
	 0.854065149,	 0.44513146
END
BEGIN
	 0.00107862698,	 0.00605382198
	 0.0189009903,	 0.0199712564
	 0.0431180833,	 0.00842314252
	 0.0463083907,	-0.0214909286
	-0.00385940476,	-0.0289028533
	-0.00180696298,	-0.0011831673
	 0.0505259702,	-0.022394399
	 0.0344318776,	-0.0583818277
END
BEGIN
	-0.000216600105,	-0.00101340861
	-0.00331871563,	-0.00283015829
	-0.0076524309,	-0.000466668455
	-0.00931203621,	 0.00597552744
	 0.00467703617,	 0.0182451472
	 0.017957471,	 0.0147250186
	 0.0270226878,	-0.0174812835
	 0.0135228558,	-0.0341824587
END
BEGIN
	 0.000318740518,	 0.00155100456
	 0.00444106295,	 0.00399288442
	 0.00809761149,	 0.000805349442
	 0.0063474813,	-0.00368773692
	 0.000490535325,	 0.000412177225
	 0.00369561472,	 0.00239975883
	 0.00381977972,	-0.00313751311
	 0.000194863345,	-0.00153051625
END
BEGIN
	 0.000318743761,	 0.0015510039
	 0.00444109875,	 0.00399284541
	 0.00809762667,	 0.000805220336
	 0.00634739626,	-0.00368789007
	 0.000490542754,	 0.000412174393
	 0.00369576263,	 0.00239959846
	 0.00381953747,	-0.00313795108
	 0.000194495241,	-0.00153068903
END
BEGIN
	-0.000216600105,	-0.00101340861
	-0.00331871563,	-0.00283015829
	-0.0076524309,	-0.000466668455
	-0.00931203621,	 0.00597552744
	 0.00467703617,	 0.0182451472
	 0.017957471,	 0.0147250186
	 0.0270226878,	-0.0174812835
	 0.0135228558,	-0.0341824587
END
BEGIN
	 0.00108140858,	 0.00606804972
	 0.0189420103,	 0.0200086894
	 0.0431955198,	 0.00843123714
	 0.0463720168,	-0.0215286554
	-0.00386188204,	-0.0289022025
	-0.00177363018,	-0.00115080106
	 0.0505956281,	-0.0224410488
	 0.0344476471,	-0.0584411434
END
BEGIN
	 0.979407414,	-0.193951037
	 0.678740197,	-0.72679584
	 0.126869169,	-0.982216207
	-0.467788839,	-0.868455548
	-0.965789603,	 0.165293857
	-0.684798099,	 0.696248854
	 0.438215249,	 0.862793052
	 0.854152462,	 0.444949893
END
BEGIN
	-0.000216600057,	-0.00101340862
	-0.00331871504,	-0.00283015892
	-0.00765243055,	-0.000466671094
	-0.00931203874,	 0.00597552273
	 0.00467702371,	 0.0182451494
	 0.0179574592,	 0.0147250307
	 0.0270226992,	-0.0174812614
	 0.0135228806,	-0.0341824459
END
BEGIN
	 0.000318740518,	 0.00155100456
	 0.00444106295,	 0.00399288442
	 0.00809761149,	 0.000805349442
	 0.0063474813,	-0.00368773692
	 0.000490535325,	 0.000412177225
	 0.00369561472,	 0.00239975883
	 0.00381977972,	-0.00313751311
	 0.000194863345,	-0.00153051625
END
BEGIN
	 0.979407414,	-0.193951037
	 0.678740197,	-0.72679584
	 0.126869169,	-0.982216207
	-0.467788839,	-0.868455548
	-0.965789603,	 0.165293857
	-0.684798099,	 0.696248854
	 0.438215249,	 0.862793052
	 0.854152462,	 0.444949893
END
BEGIN
	 0.00108140518,	 0.00606805041
	 0.0189419727,	 0.0200087303
	 0.0431955037,	 0.00843137236
	 0.0463721053,	-0.0215284954
	-0.00386189065,	-0.0289021992
	-0.0017737838,	-0.0011506349
	 0.0505958732,	-0.0224406025
	 0.0344480159,	-0.0584409686
END
BEGIN
	 50 ,	 0 
	 50 ,	 0 
	 50 ,	 0 
	 50 ,	 0 
	 50 ,	 0 
	 50 ,	 0 
	 50 ,	 0 
	 50 ,	 0 
END
BEGIN
	 50 ,	 0 
	 50 ,	 0 
	 50 ,	 0 
	 50 ,	 0 
	 50 ,	 0 
	 50 ,	 0 
	 50 ,	 0 
	 50 ,	 0 
END
BEGIN
	 50 ,	 0 
	 50 ,	 0 
	 50 ,	 0 
	 50 ,	 0 
	 50 ,	 0 
	 50 ,	 0 
	 50 ,	 0 
	 50 ,	 0 
END
BEGIN
	 50 ,	 0 
	 50 ,	 0 
	 50 ,	 0 
	 50 ,	 0 
	 50 ,	 0 
	 50 ,	 0 
	 50 ,	 0 
	 50 ,	 0 
END
BEGIN
	 50 ,	 0 
	 50 ,	 0 
	 50 ,	 0 
	 50 ,	 0 
	 50 ,	 0 
	 50 ,	 0 
	 50 ,	 0 
	 50 ,	 0 
END
BEGIN
	 50 ,	 0 
	 50 ,	 0 
	 50 ,	 0 
	 50 ,	 0 
	 50 ,	 0 
	 50 ,	 0 
	 50 ,	 0 
	 50 ,	 0 
END
BEGIN
	 50 ,	 0 
	 50 ,	 0 
	 50 ,	 0 
	 50 ,	 0 
	 50 ,	 0 
	 50 ,	 0 
	 50 ,	 0 
	 50 ,	 0 
END
BEGIN
	 50 ,	 0 
	 50 ,	 0 
	 50 ,	 0 
	 50 ,	 0 
	 50 ,	 0 
	 50 ,	 0 
	 50 ,	 0 
	 50 ,	 0 
END
