CITIFILE A.01.01
#Momentum: B.09.20.456 (*) 372.600 Nov 12 2011 
#Momentum Date and Time: Wed Oct 10 20:34:53 2012

NAME Momentum.SP

#  mode: MW    reference: S_50

CONSTANT NBR_OF_PORTS 2

CONSTANT NORMALIZATION 1

VAR freq MAG 125

DATA S[1,1] RI
DATA S[1,2] RI
DATA S[2,1] RI
DATA S[2,2] RI
DATA S_50[1,1] RI
DATA S_50[1,2] RI
DATA S_50[2,1] RI
DATA S_50[2,2] RI
DATA S_Z0[1,1] RI
DATA S_Z0[1,2] RI
DATA S_Z0[2,1] RI
DATA S_Z0[2,2] RI
DATA Z0[1] RI
DATA Z0[2] RI
DATA PORTZ[1] RI
DATA PORTZ[2] RI

VAR_LIST_BEGIN
	 100000000
	 115104166.7
	 130208333.3
	 145312500
	 160416666.7
	 175520833.4
	 190625000
	 205729166.7
	 220833333.4
	 235937500
	 251041666.7
	 266145833.4
	 281250000.1
	 296354166.7
	 311458333.4
	 326562500.1
	 341666666.8
	 356770833.4
	 371875000.1
	 386979166.8
	 402083333.4
	 417187500.1
	 432291666.8
	 447395833.5
	 462500000.1
	 477604166.8
	 492708333.5
	 507812500.1
	 522916666.8
	 538020833.5
	 553125000.2
	 568229166.8
	 583333333.5
	 598437500.2
	 613541666.8
	 628645833.5
	 643750000.2
	 658854166.9
	 673958333.5
	 689062500.2
	 704166666.9
	 719270833.5
	 734375000.2
	 749479166.9
	 764583333.6
	 779687500.2
	 794791666.9
	 809895833.6
	 825000000.3
	 840104166.9
	 855208333.6
	 870312500.3
	 885416666.9
	 900520833.6
	 915625000.3
	 930729167
	 945833333.6
	 960937500.3
	 976041667
	 991145833.6
	 1006250000
	 1021354167
	 1036458334
	 1051562500
	 1066666667
	 1096875000
	 1127083334
	 1157291667
	 1187500000
	 1217708334
	 1247916667
	 1278125000
	 1308333334
	 1338541667
	 1368750000
	 1398958333
	 1429166667
	 1459375000
	 1489583333
	 1519791667
	 1550000000
	 1580208333
	 1610416667
	 1640625000
	 1670833333
	 1701041667
	 1731250000
	 1761458333
	 1791666667
	 1821875000
	 1852083333
	 1882291666
	 1912500000
	 1942708333
	 1972916666
	 2003125000
	 2033333333
	 2063541666
	 2093750000
	 2123958333
	 2154166666
	 2184375000
	 2214583333
	 2244791666
	 2275000000
	 2305208333
	 2335416666
	 2365625000
	 2395833333
	 2426041666
	 2456250000
	 2486458333
	 2516666667
	 2546875000
	 2577083333
	 2607291667
	 2637500000
	 2667708333
	 2697916667
	 2728125000
	 2758333333
	 2818750000
	 2879166667
	 2939583333
	 3000000000
VAR_LIST_END

BEGIN
	 0.0010518,	 0.022922
	 0.0013237,	 0.026365
	 0.0016314,	 0.029802
	 0.0019741,	 0.033231
	 0.0023513,	 0.036653
	 0.0027626,	 0.040067
	 0.0032075,	 0.043473
	 0.0036858,	 0.046872
	 0.0041971,	 0.050263
	 0.0047414,	 0.053645
	 0.0053183,	 0.057019
	 0.0059277,	 0.060385
	 0.0065696,	 0.063742
	 0.0072438,	 0.06709
	 0.0079502,	 0.070429
	 0.0086887,	 0.073758
	 0.0094593,	 0.077078
	 0.010262,	 0.080388
	 0.011096,	 0.083688
	 0.011963,	 0.086977
	 0.01286,	 0.090255
	 0.01379,	 0.093521
	 0.014751,	 0.096776
	 0.015743,	 0.10001
	 0.016766,	 0.10325
	 0.01782,	 0.10646
	 0.018906,	 0.10967
	 0.020021,	 0.11286
	 0.021168,	 0.11604
	 0.022344,	 0.1192
	 0.023551,	 0.12235
	 0.024788,	 0.12549
	 0.026054,	 0.12861
	 0.02735,	 0.13171
	 0.028676,	 0.1348
	 0.03003,	 0.13787
	 0.031413,	 0.14093
	 0.032825,	 0.14397
	 0.034265,	 0.14699
	 0.035734,	 0.14999
	 0.03723,	 0.15298
	 0.038754,	 0.15595
	 0.040305,	 0.1589
	 0.041883,	 0.16183
	 0.043488,	 0.16474
	 0.04512,	 0.16764
	 0.046777,	 0.17051
	 0.048461,	 0.17336
	 0.050171,	 0.1762
	 0.051906,	 0.17901
	 0.053665,	 0.18181
	 0.05545,	 0.18458
	 0.057259,	 0.18733
	 0.059093,	 0.19006
	 0.06095,	 0.19277
	 0.062831,	 0.19545
	 0.064735,	 0.19812
	 0.066662,	 0.20076
	 0.068612,	 0.20338
	 0.070583,	 0.20598
	 0.072577,	 0.20855
	 0.074593,	 0.2111
	 0.07663,	 0.21363
	 0.078687,	 0.21614
	 0.080766,	 0.21862
	 0.084983,	 0.22351
	 0.089279,	 0.2283
	 0.093651,	 0.23299
	 0.098097,	 0.23759
	 0.10261,	 0.24209
	 0.10719,	 0.24648
	 0.11184,	 0.25077
	 0.11655,	 0.25496
	 0.12132,	 0.25905
	 0.12615,	 0.26303
	 0.13103,	 0.26691
	 0.13596,	 0.27068
	 0.14094,	 0.27434
	 0.14597,	 0.2779
	 0.15104,	 0.28136
	 0.15615,	 0.2847
	 0.1613,	 0.28794
	 0.16649,	 0.29108
	 0.17171,	 0.2941
	 0.17695,	 0.29702
	 0.18223,	 0.29984
	 0.18753,	 0.30255
	 0.19286,	 0.30515
	 0.1982,	 0.30765
	 0.20357,	 0.31004
	 0.20894,	 0.31233
	 0.21434,	 0.31451
	 0.21974,	 0.3166
	 0.22516,	 0.31858
	 0.23058,	 0.32045
	 0.236,	 0.32223
	 0.24143,	 0.32391
	 0.24686,	 0.32548
	 0.25229,	 0.32696
	 0.25771,	 0.32834
	 0.26313,	 0.32963
	 0.26855,	 0.33081
	 0.27395,	 0.33191
	 0.27935,	 0.33291
	 0.28473,	 0.33381
	 0.2901,	 0.33463
	 0.29545,	 0.33535
	 0.30079,	 0.33599
	 0.30611,	 0.33654
	 0.31141,	 0.337
	 0.31668,	 0.33737
	 0.32194,	 0.33766
	 0.32717,	 0.33787
	 0.33237,	 0.338
	 0.33755,	 0.33804
	 0.34271,	 0.33801
	 0.34783,	 0.33789
	 0.35292,	 0.3377
	 0.35799,	 0.33744
	 0.36302,	 0.3371
	 0.36801,	 0.33669
	 0.37791,	 0.33565
	 0.38766,	 0.33433
	 0.39726,	 0.33275
	 0.40671,	 0.33091
END
BEGIN
	 0.9987774434495742 ,	 -0.034401177890119622 
	 0.99846414898278901 ,	 -0.039569910189490964 
	 0.99811128741932831 ,	 -0.044729504340526111 
	 0.99771982180049756 ,	 -0.049879827892090223 
	 0.99729056109329062 ,	 -0.055020871011056904 
	 0.99682415971381522 ,	 -0.060152695003515 
	 0.9963211291121622 ,	 -0.065275390356636154 
	 0.99578185633628968 ,	 -0.070389045270293604 
	 0.99520662551865346 ,	 -0.07549372401451887 
	 0.99459563943199081 ,	 -0.080589453579206716 
	 0.99394903935449941 ,	 -0.085676216786596204 
	 0.99326692234233882 ,	 -0.090753950102893249 
	 0.99254935560719759 ,	 -0.09582254463695819 
	 0.99179638807257819 ,	 -0.10088184912947917 
	 0.99100805938814929 ,	 -0.10593167404351292 
	 0.99018440677032626 ,	 -0.1109717961317005 
	 0.98932,	-0.116
	 0.98843,	-0.12102
	 0.9875,	-0.12603
	 0.98653,	-0.13102
	 0.98553,	-0.13601
	 0.9845,	-0.14099
	 0.98343,	-0.14595
	 0.98233,	-0.1509
	 0.98119,	-0.15584
	 0.98001,	-0.16077
	 0.97881,	-0.16568
	 0.97756,	-0.17058
	 0.97629,	-0.17547
	 0.97498,	-0.18034
	 0.97364,	-0.18519
	 0.97226,	-0.19004
	 0.97085,	-0.19486
	 0.96941,	-0.19967
	 0.96793,	-0.20446
	 0.96642,	-0.20924
	 0.96488,	-0.214
	 0.96331,	-0.21875
	 0.9617,	-0.22347
	 0.96007,	-0.22818
	 0.9584,	-0.23287
	 0.9567,	-0.23754
	 0.95497,	-0.24219
	 0.95321,	-0.24683
	 0.95142,	-0.25144
	 0.9496,	-0.25604
	 0.94775,	-0.26061
	 0.94587,	-0.26516
	 0.94397,	-0.2697
	 0.94203,	-0.27421
	 0.94006,	-0.2787
	 0.93807,	-0.28317
	 0.93605,	-0.28762
	 0.934,	-0.29205
	 0.93192,	-0.29646
	 0.92982,	-0.30084
	 0.92769,	-0.3052
	 0.92553,	-0.30954
	 0.92335,	-0.31385
	 0.92114,	-0.31815
	 0.91891,	-0.32241
	 0.91665,	-0.32666
	 0.91437,	-0.33088
	 0.91206,	-0.33508
	 0.90973,	-0.33925
	 0.905,	-0.34752
	 0.90018,	-0.3557
	 0.89526,	-0.36377
	 0.89026,	-0.37175
	 0.88518,	-0.37962
	 0.88002,	-0.38739
	 0.87478,	-0.39506
	 0.86946,	-0.40262
	 0.86408,	-0.41008
	 0.85862,	-0.41743
	 0.8531,	-0.42467
	 0.84751,	-0.43181
	 0.84186,	-0.43884
	 0.83615,	-0.44576
	 0.83039,	-0.45258
	 0.82457,	-0.45929
	 0.81871,	-0.46589
	 0.81279,	-0.47238
	 0.80683,	-0.47877
	 0.80083,	-0.48505
	 0.79478,	-0.49122
	 0.7887,	-0.49728
	 0.78258,	-0.50324
	 0.77643,	-0.50909
	 0.77025,	-0.51484
	 0.76404,	-0.52048
	 0.7578,	-0.52602
	 0.75154,	-0.53146
	 0.74526,	-0.53679
	 0.73895,	-0.54202
	 0.73263,	-0.54715
	 0.7263,	-0.55217
	 0.71995,	-0.5571
	 0.71358,	-0.56193
	 0.70721,	-0.56666
	 0.70083,	-0.5713
	 0.69444,	-0.57584
	 0.68805,	-0.58028
	 0.68166,	-0.58463
	 0.67526,	-0.58889
	 0.66887,	-0.59306
	 0.66247,	-0.59713
	 0.65608,	-0.60112
	 0.64969,	-0.60502
	 0.64331,	-0.60883
	 0.63694,	-0.61256
	 0.63057,	-0.6162
	 0.62422,	-0.61976
	 0.61787,	-0.62324
	 0.61154,	-0.62664
	 0.60522,	-0.62996
	 0.59892,	-0.6332
	 0.59263,	-0.63636
	 0.58635,	-0.63945
	 0.5801,	-0.64246
	 0.57386,	-0.6454
	 0.56144,	-0.65107
	 0.5491,	-0.65646
	 0.53685,	-0.66158
	 0.52469,	-0.66645
END
BEGIN
	 0.9987774434495742 ,	 -0.034401177890119622 
	 0.99846414898278901 ,	 -0.039569910189490964 
	 0.99811128741932831 ,	 -0.044729504340526111 
	 0.99771982180049756 ,	 -0.049879827892090223 
	 0.99729056109329062 ,	 -0.055020871011056904 
	 0.99682415971381522 ,	 -0.060152695003515 
	 0.9963211291121622 ,	 -0.065275390356636154 
	 0.99578185633628968 ,	 -0.070389045270293604 
	 0.99520662551865346 ,	 -0.07549372401451887 
	 0.99459563943199081 ,	 -0.080589453579206716 
	 0.99394903935449941 ,	 -0.085676216786596204 
	 0.99326692234233882 ,	 -0.090753950102893249 
	 0.99254935560719759 ,	 -0.09582254463695819 
	 0.99179638807257819 ,	 -0.10088184912947917 
	 0.99100805938814929 ,	 -0.10593167404351292 
	 0.99018440677032626 ,	 -0.1109717961317005 
	 0.98932,	-0.116
	 0.98843,	-0.12102
	 0.9875,	-0.12603
	 0.98653,	-0.13102
	 0.98553,	-0.13601
	 0.9845,	-0.14099
	 0.98343,	-0.14595
	 0.98233,	-0.1509
	 0.98119,	-0.15584
	 0.98001,	-0.16077
	 0.97881,	-0.16568
	 0.97756,	-0.17058
	 0.97629,	-0.17547
	 0.97498,	-0.18034
	 0.97364,	-0.18519
	 0.97226,	-0.19004
	 0.97085,	-0.19486
	 0.96941,	-0.19967
	 0.96793,	-0.20446
	 0.96642,	-0.20924
	 0.96488,	-0.214
	 0.96331,	-0.21875
	 0.9617,	-0.22347
	 0.96007,	-0.22818
	 0.9584,	-0.23287
	 0.9567,	-0.23754
	 0.95497,	-0.24219
	 0.95321,	-0.24683
	 0.95142,	-0.25144
	 0.9496,	-0.25604
	 0.94775,	-0.26061
	 0.94587,	-0.26516
	 0.94397,	-0.2697
	 0.94203,	-0.27421
	 0.94006,	-0.2787
	 0.93807,	-0.28317
	 0.93605,	-0.28762
	 0.934,	-0.29205
	 0.93192,	-0.29646
	 0.92982,	-0.30084
	 0.92769,	-0.3052
	 0.92553,	-0.30954
	 0.92335,	-0.31385
	 0.92114,	-0.31815
	 0.91891,	-0.32241
	 0.91665,	-0.32666
	 0.91437,	-0.33088
	 0.91206,	-0.33508
	 0.90973,	-0.33925
	 0.905,	-0.34752
	 0.90018,	-0.3557
	 0.89526,	-0.36377
	 0.89026,	-0.37175
	 0.88518,	-0.37962
	 0.88002,	-0.38739
	 0.87478,	-0.39506
	 0.86946,	-0.40262
	 0.86408,	-0.41008
	 0.85862,	-0.41743
	 0.8531,	-0.42467
	 0.84751,	-0.43181
	 0.84186,	-0.43884
	 0.83615,	-0.44576
	 0.83039,	-0.45258
	 0.82457,	-0.45929
	 0.81871,	-0.46589
	 0.81279,	-0.47238
	 0.80683,	-0.47877
	 0.80083,	-0.48505
	 0.79478,	-0.49122
	 0.7887,	-0.49728
	 0.78258,	-0.50324
	 0.77643,	-0.50909
	 0.77025,	-0.51484
	 0.76404,	-0.52048
	 0.7578,	-0.52602
	 0.75154,	-0.53146
	 0.74526,	-0.53679
	 0.73895,	-0.54202
	 0.73263,	-0.54715
	 0.7263,	-0.55217
	 0.71995,	-0.5571
	 0.71358,	-0.56193
	 0.70721,	-0.56666
	 0.70083,	-0.5713
	 0.69444,	-0.57584
	 0.68805,	-0.58028
	 0.68166,	-0.58463
	 0.67526,	-0.58889
	 0.66887,	-0.59306
	 0.66247,	-0.59713
	 0.65608,	-0.60112
	 0.64969,	-0.60502
	 0.64331,	-0.60883
	 0.63694,	-0.61256
	 0.63057,	-0.6162
	 0.62422,	-0.61976
	 0.61787,	-0.62324
	 0.61154,	-0.62664
	 0.60522,	-0.62996
	 0.59892,	-0.6332
	 0.59263,	-0.63636
	 0.58635,	-0.63945
	 0.5801,	-0.64246
	 0.57386,	-0.6454
	 0.56144,	-0.65107
	 0.5491,	-0.65646
	 0.53685,	-0.66158
	 0.52469,	-0.66645
END
BEGIN
	 0.001074,	 0.022921
	 0.0013215,	 0.026365
	 0.0016058,	 0.029802
	 0.0019273,	 0.033233
	 0.0022858,	 0.036658
	 0.0026815,	 0.040076
	 0.0031141,	 0.043488
	 0.0035835,	 0.046892
	 0.0040896,	 0.050289
	 0.0046321,	 0.053678
	 0.0052108,	 0.057059
	 0.0058254,	 0.060432
	 0.0064757,	 0.063796
	 0.0071615,	 0.067151
	 0.0078825,	 0.070497
	 0.0086385,	 0.073832
	 0.0094292,	 0.077157
	 0.010254,	 0.080472
	 0.011114,	 0.083775
	 0.012007,	 0.087067
	 0.012934,	 0.090346
	 0.013895,	 0.093614
	 0.014888,	 0.096868
	 0.015915,	 0.1001
	 0.016974,	 0.10333
	 0.018066,	 0.10655
	 0.01919,	 0.10975
	 0.020346,	 0.11293
	 0.021534,	 0.1161
	 0.022753,	 0.11926
	 0.024003,	 0.1224
	 0.025284,	 0.12552
	 0.026596,	 0.12863
	 0.027938,	 0.13172
	 0.02931,	 0.1348
	 0.030712,	 0.13785
	 0.032143,	 0.14089
	 0.033604,	 0.14391
	 0.035094,	 0.14692
	 0.036612,	 0.1499
	 0.038158,	 0.15287
	 0.039733,	 0.15581
	 0.041336,	 0.15874
	 0.042966,	 0.16165
	 0.044623,	 0.16454
	 0.046307,	 0.16741
	 0.048018,	 0.17025
	 0.049755,	 0.17308
	 0.051519,	 0.17589
	 0.053307,	 0.17867
	 0.055122,	 0.18144
	 0.056961,	 0.18418
	 0.058825,	 0.1869
	 0.060714,	 0.1896
	 0.062627,	 0.19227
	 0.064564,	 0.19493
	 0.066524,	 0.19756
	 0.068508,	 0.20016
	 0.070514,	 0.20275
	 0.072543,	 0.20531
	 0.074594,	 0.20785
	 0.076667,	 0.21036
	 0.078762,	 0.21285
	 0.080878,	 0.21531
	 0.083015,	 0.21775
	 0.08735,	 0.22256
	 0.091764,	 0.22727
	 0.096256,	 0.23188
	 0.10082,	 0.23638
	 0.10545,	 0.24079
	 0.11016,	 0.24508
	 0.11493,	 0.24928
	 0.11977,	 0.25337
	 0.12467,	 0.25735
	 0.12962,	 0.26122
	 0.13463,	 0.26499
	 0.13969,	 0.26865
	 0.1448,	 0.2722
	 0.14996,	 0.27564
	 0.15516,	 0.27897
	 0.16041,	 0.28219
	 0.16569,	 0.2853
	 0.17101,	 0.2883
	 0.17636,	 0.2912
	 0.18174,	 0.29398
	 0.18716,	 0.29665
	 0.19259,	 0.29922
	 0.19805,	 0.30167
	 0.20354,	 0.30402
	 0.20904,	 0.30625
	 0.21455,	 0.30838
	 0.22008,	 0.3104
	 0.22562,	 0.31232
	 0.23118,	 0.31413
	 0.23673,	 0.31583
	 0.24229,	 0.31743
	 0.24786,	 0.31892
	 0.25342,	 0.32031
	 0.25899,	 0.3216
	 0.26455,	 0.32279
	 0.2701,	 0.32388
	 0.27564,	 0.32486
	 0.28118,	 0.32575
	 0.2867,	 0.32654
	 0.29221,	 0.32723
	 0.29771,	 0.32783
	 0.30319,	 0.32834
	 0.30865,	 0.32875
	 0.31409,	 0.32907
	 0.31951,	 0.32929
	 0.3249,	 0.32943
	 0.33028,	 0.32948
	 0.33562,	 0.32945
	 0.34094,	 0.32932
	 0.34623,	 0.32912
	 0.35148,	 0.32883
	 0.35671,	 0.32845
	 0.36191,	 0.328
	 0.36707,	 0.32747
	 0.37219,	 0.32686
	 0.37728,	 0.32617
	 0.38735,	 0.32458
	 0.39727,	 0.32269
	 0.40702,	 0.32053
	 0.4166,	 0.3181
END
BEGIN
	 0.0010518,	 0.022922
	 0.0013237,	 0.026365
	 0.0016314,	 0.029802
	 0.0019741,	 0.033231
	 0.0023513,	 0.036653
	 0.0027626,	 0.040067
	 0.0032075,	 0.043473
	 0.0036858,	 0.046872
	 0.0041971,	 0.050263
	 0.0047414,	 0.053645
	 0.0053183,	 0.057019
	 0.0059277,	 0.060385
	 0.0065696,	 0.063742
	 0.0072438,	 0.06709
	 0.0079502,	 0.070429
	 0.0086887,	 0.073758
	 0.0094593,	 0.077078
	 0.010262,	 0.080388
	 0.011096,	 0.083688
	 0.011963,	 0.086977
	 0.01286,	 0.090255
	 0.01379,	 0.093521
	 0.014751,	 0.096776
	 0.015743,	 0.10001
	 0.016766,	 0.10325
	 0.01782,	 0.10646
	 0.018906,	 0.10967
	 0.020021,	 0.11286
	 0.021168,	 0.11604
	 0.022344,	 0.1192
	 0.023551,	 0.12235
	 0.024788,	 0.12549
	 0.026054,	 0.12861
	 0.02735,	 0.13171
	 0.028676,	 0.1348
	 0.03003,	 0.13787
	 0.031413,	 0.14093
	 0.032825,	 0.14397
	 0.034265,	 0.14699
	 0.035734,	 0.14999
	 0.03723,	 0.15298
	 0.038754,	 0.15595
	 0.040305,	 0.1589
	 0.041883,	 0.16183
	 0.043488,	 0.16474
	 0.04512,	 0.16764
	 0.046777,	 0.17051
	 0.048461,	 0.17336
	 0.050171,	 0.1762
	 0.051906,	 0.17901
	 0.053665,	 0.18181
	 0.05545,	 0.18458
	 0.057259,	 0.18733
	 0.059093,	 0.19006
	 0.06095,	 0.19277
	 0.062831,	 0.19545
	 0.064735,	 0.19812
	 0.066662,	 0.20076
	 0.068612,	 0.20338
	 0.070583,	 0.20598
	 0.072577,	 0.20855
	 0.074593,	 0.2111
	 0.07663,	 0.21363
	 0.078687,	 0.21614
	 0.080766,	 0.21862
	 0.084983,	 0.22351
	 0.089279,	 0.2283
	 0.093651,	 0.23299
	 0.098097,	 0.23759
	 0.10261,	 0.24209
	 0.10719,	 0.24648
	 0.11184,	 0.25077
	 0.11655,	 0.25496
	 0.12132,	 0.25905
	 0.12615,	 0.26303
	 0.13103,	 0.26691
	 0.13596,	 0.27068
	 0.14094,	 0.27434
	 0.14597,	 0.2779
	 0.15104,	 0.28136
	 0.15615,	 0.2847
	 0.1613,	 0.28794
	 0.16649,	 0.29108
	 0.17171,	 0.2941
	 0.17695,	 0.29702
	 0.18223,	 0.29984
	 0.18753,	 0.30255
	 0.19286,	 0.30515
	 0.1982,	 0.30765
	 0.20357,	 0.31004
	 0.20894,	 0.31233
	 0.21434,	 0.31451
	 0.21974,	 0.3166
	 0.22516,	 0.31858
	 0.23058,	 0.32045
	 0.236,	 0.32223
	 0.24143,	 0.32391
	 0.24686,	 0.32548
	 0.25229,	 0.32696
	 0.25771,	 0.32834
	 0.26313,	 0.32963
	 0.26855,	 0.33081
	 0.27395,	 0.33191
	 0.27935,	 0.33291
	 0.28473,	 0.33381
	 0.2901,	 0.33463
	 0.29545,	 0.33535
	 0.30079,	 0.33599
	 0.30611,	 0.33654
	 0.31141,	 0.337
	 0.31668,	 0.33737
	 0.32194,	 0.33766
	 0.32717,	 0.33787
	 0.33237,	 0.338
	 0.33755,	 0.33804
	 0.34271,	 0.33801
	 0.34783,	 0.33789
	 0.35292,	 0.3377
	 0.35799,	 0.33744
	 0.36302,	 0.3371
	 0.36801,	 0.33669
	 0.37791,	 0.33565
	 0.38766,	 0.33433
	 0.39726,	 0.33275
	 0.40671,	 0.33091
END
BEGIN
	 0.9987774434495742 ,	 -0.034401177890119622 
	 0.99846414898278901 ,	 -0.039569910189490964 
	 0.99811128741932831 ,	 -0.044729504340526111 
	 0.99771982180049756 ,	 -0.049879827892090223 
	 0.99729056109329062 ,	 -0.055020871011056904 
	 0.99682415971381522 ,	 -0.060152695003515 
	 0.9963211291121622 ,	 -0.065275390356636154 
	 0.99578185633628968 ,	 -0.070389045270293604 
	 0.99520662551865346 ,	 -0.07549372401451887 
	 0.99459563943199081 ,	 -0.080589453579206716 
	 0.99394903935449941 ,	 -0.085676216786596204 
	 0.99326692234233882 ,	 -0.090753950102893249 
	 0.99254935560719759 ,	 -0.09582254463695819 
	 0.99179638807257819 ,	 -0.10088184912947917 
	 0.99100805938814929 ,	 -0.10593167404351292 
	 0.99018440677032626 ,	 -0.1109717961317005 
	 0.98932,	-0.116
	 0.98843,	-0.12102
	 0.9875,	-0.12603
	 0.98653,	-0.13102
	 0.98553,	-0.13601
	 0.9845,	-0.14099
	 0.98343,	-0.14595
	 0.98233,	-0.1509
	 0.98119,	-0.15584
	 0.98001,	-0.16077
	 0.97881,	-0.16568
	 0.97756,	-0.17058
	 0.97629,	-0.17547
	 0.97498,	-0.18034
	 0.97364,	-0.18519
	 0.97226,	-0.19004
	 0.97085,	-0.19486
	 0.96941,	-0.19967
	 0.96793,	-0.20446
	 0.96642,	-0.20924
	 0.96488,	-0.214
	 0.96331,	-0.21875
	 0.9617,	-0.22347
	 0.96007,	-0.22818
	 0.9584,	-0.23287
	 0.9567,	-0.23754
	 0.95497,	-0.24219
	 0.95321,	-0.24683
	 0.95142,	-0.25144
	 0.9496,	-0.25604
	 0.94775,	-0.26061
	 0.94587,	-0.26516
	 0.94397,	-0.2697
	 0.94203,	-0.27421
	 0.94006,	-0.2787
	 0.93807,	-0.28317
	 0.93605,	-0.28762
	 0.934,	-0.29205
	 0.93192,	-0.29646
	 0.92982,	-0.30084
	 0.92769,	-0.3052
	 0.92553,	-0.30954
	 0.92335,	-0.31385
	 0.92114,	-0.31815
	 0.91891,	-0.32241
	 0.91665,	-0.32666
	 0.91437,	-0.33088
	 0.91206,	-0.33508
	 0.90973,	-0.33925
	 0.905,	-0.34752
	 0.90018,	-0.3557
	 0.89526,	-0.36377
	 0.89026,	-0.37175
	 0.88518,	-0.37962
	 0.88002,	-0.38739
	 0.87478,	-0.39506
	 0.86946,	-0.40262
	 0.86408,	-0.41008
	 0.85862,	-0.41743
	 0.8531,	-0.42467
	 0.84751,	-0.43181
	 0.84186,	-0.43884
	 0.83615,	-0.44576
	 0.83039,	-0.45258
	 0.82457,	-0.45929
	 0.81871,	-0.46589
	 0.81279,	-0.47238
	 0.80683,	-0.47877
	 0.80083,	-0.48505
	 0.79478,	-0.49122
	 0.7887,	-0.49728
	 0.78258,	-0.50324
	 0.77643,	-0.50909
	 0.77025,	-0.51484
	 0.76404,	-0.52048
	 0.7578,	-0.52602
	 0.75154,	-0.53146
	 0.74526,	-0.53679
	 0.73895,	-0.54202
	 0.73263,	-0.54715
	 0.7263,	-0.55217
	 0.71995,	-0.5571
	 0.71358,	-0.56193
	 0.70721,	-0.56666
	 0.70083,	-0.5713
	 0.69444,	-0.57584
	 0.68805,	-0.58028
	 0.68166,	-0.58463
	 0.67526,	-0.58889
	 0.66887,	-0.59306
	 0.66247,	-0.59713
	 0.65608,	-0.60112
	 0.64969,	-0.60502
	 0.64331,	-0.60883
	 0.63694,	-0.61256
	 0.63057,	-0.6162
	 0.62422,	-0.61976
	 0.61787,	-0.62324
	 0.61154,	-0.62664
	 0.60522,	-0.62996
	 0.59892,	-0.6332
	 0.59263,	-0.63636
	 0.58635,	-0.63945
	 0.5801,	-0.64246
	 0.57386,	-0.6454
	 0.56144,	-0.65107
	 0.5491,	-0.65646
	 0.53685,	-0.66158
	 0.52469,	-0.66645
END
BEGIN
	 0.9987774434495742 ,	 -0.034401177890119622 
	 0.99846414898278901 ,	 -0.039569910189490964 
	 0.99811128741932831 ,	 -0.044729504340526111 
	 0.99771982180049756 ,	 -0.049879827892090223 
	 0.99729056109329062 ,	 -0.055020871011056904 
	 0.99682415971381522 ,	 -0.060152695003515 
	 0.9963211291121622 ,	 -0.065275390356636154 
	 0.99578185633628968 ,	 -0.070389045270293604 
	 0.99520662551865346 ,	 -0.07549372401451887 
	 0.99459563943199081 ,	 -0.080589453579206716 
	 0.99394903935449941 ,	 -0.085676216786596204 
	 0.99326692234233882 ,	 -0.090753950102893249 
	 0.99254935560719759 ,	 -0.09582254463695819 
	 0.99179638807257819 ,	 -0.10088184912947917 
	 0.99100805938814929 ,	 -0.10593167404351292 
	 0.99018440677032626 ,	 -0.1109717961317005 
	 0.98932,	-0.116
	 0.98843,	-0.12102
	 0.9875,	-0.12603
	 0.98653,	-0.13102
	 0.98553,	-0.13601
	 0.9845,	-0.14099
	 0.98343,	-0.14595
	 0.98233,	-0.1509
	 0.98119,	-0.15584
	 0.98001,	-0.16077
	 0.97881,	-0.16568
	 0.97756,	-0.17058
	 0.97629,	-0.17547
	 0.97498,	-0.18034
	 0.97364,	-0.18519
	 0.97226,	-0.19004
	 0.97085,	-0.19486
	 0.96941,	-0.19967
	 0.96793,	-0.20446
	 0.96642,	-0.20924
	 0.96488,	-0.214
	 0.96331,	-0.21875
	 0.9617,	-0.22347
	 0.96007,	-0.22818
	 0.9584,	-0.23287
	 0.9567,	-0.23754
