CITIFILE A.01.01
#Momentum: B.09.20.456 (*) 372.600 Nov 12 2011 
#Momentum Date and Time: Wed Oct 10 20:59:46 2012

NAME Momentum.SP

#  mode: MW    project: proj    reference: S_50

CONSTANT NBR_OF_PORTS 4

CONSTANT NORMALIZATION 1

VAR freq MAG 8

DATA S[1,1] RI
DATA S[1,2] RI
DATA S[1,3] RI
DATA S[1,4] RI
DATA S[2,1] RI
DATA S[2,2] RI
DATA S[2,3] RI
DATA S[2,4] RI
DATA S[3,1] RI
DATA S[3,2] RI
DATA S[3,3] RI
DATA S[3,4] RI
DATA S[4,1] RI
DATA S[4,2] RI
DATA S[4,3] RI
DATA S[4,4] RI
DATA S_50[1,1] RI
DATA S_50[1,2] RI
DATA S_50[1,3] RI
DATA S_50[1,4] RI
DATA S_50[2,1] RI
DATA S_50[2,2] RI
DATA S_50[2,3] RI
DATA S_50[2,4] RI
DATA S_50[3,1] RI
DATA S_50[3,2] RI
DATA S_50[3,3] RI
DATA S_50[3,4] RI
DATA S_50[4,1] RI
DATA S_50[4,2] RI
DATA S_50[4,3] RI
DATA S_50[4,4] RI
DATA S_Z0[1,1] RI
DATA S_Z0[1,2] RI
DATA S_Z0[1,3] RI
DATA S_Z0[1,4] RI
DATA S_Z0[2,1] RI
DATA S_Z0[2,2] RI
DATA S_Z0[2,3] RI
DATA S_Z0[2,4] RI
DATA S_Z0[3,1] RI
DATA S_Z0[3,2] RI
DATA S_Z0[3,3] RI
DATA S_Z0[3,4] RI
DATA S_Z0[4,1] RI
DATA S_Z0[4,2] RI
DATA S_Z0[4,3] RI
DATA S_Z0[4,4] RI
DATA Z0[1] RI
DATA Z0[2] RI
DATA Z0[3] RI
DATA Z0[4] RI
DATA PORTZ[1] RI
DATA PORTZ[2] RI
DATA PORTZ[3] RI
DATA PORTZ[4] RI

VAR_LIST_BEGIN
	 100000000
	 422222222.3
	 744444444.7
	 1066666667
	 1711111111
	 2033333333
	 2677777778
	 3000000000
VAR_LIST_END

BEGIN
	 0.00107541642,	 0.00605165131
	 0.0188937543,	 0.0199717118
	 0.0431123201,	 0.00842816333
	 0.046307249,	-0.0214849667
	-0.00385912784,	-0.0289032286
	-0.00180964549,	-0.0011832331
	 0.0505256107,	-0.0223901787
	 0.0344336165,	-0.0583793192
END
BEGIN
	 0.979411915,	-0.193942379
	 0.678769223,	-0.726778519
	 0.126923914,	-0.982220287
	-0.467730599,	-0.868501762
	-0.965821605,	 0.165179702
	-0.684910725,	 0.696157613
	 0.438052981,	 0.862900457
	 0.854074159,	 0.445150313
END
BEGIN
	 0.000315555399,	 0.00154885123
	 0.00443387787,	 0.00399334062
	 0.00809188179,	 0.000810350972
	 0.00634634751,	-0.00368178454
	 0.000490818677,	 0.000411817107
	 0.00369292329,	 0.00239970746
	 0.00381938681,	-0.00313322537
	 0.000196787592,	-0.0015279901
END
BEGIN
	-0.000213396345,	-0.00101124564
	-0.00331084046,	-0.0028306645
	-0.00764458427,	-0.000473312085
	-0.0093090591,	 0.00596376163
	 0.00466398243,	 0.0182364389
	 0.0179400113,	 0.0147257712
	 0.0270175823,	-0.0174615916
	 0.0135307154,	-0.0341628089
END
BEGIN
	 0.979411915,	-0.193942379
	 0.678769223,	-0.726778519
	 0.126923914,	-0.982220287
	-0.467730599,	-0.868501762
	-0.965821605,	 0.165179702
	-0.684910725,	 0.696157613
	 0.438052981,	 0.862900457
	 0.854074159,	 0.445150313
END
BEGIN
	 0.00107541286,	 0.00605165204
	 0.0188937152,	 0.0199717545
	 0.0431123035,	 0.0084283045
	 0.0463073419,	-0.0214847991
	-0.00385913243,	-0.0289032258
	-0.00180980182,	-0.00118306387
	 0.0505258655,	-0.0223897141
	 0.0344340051,	-0.0583791343
END
BEGIN
	-0.000213396392,	-0.00101124563
	-0.00331084105,	-0.00283066388
	-0.00764458462,	-0.0004733095
	-0.00930905662,	 0.00596376624
	 0.00466399459,	 0.0182364367
	 0.0179400227,	 0.0147257595
	 0.0270175713,	-0.0174616131
	 0.0135306914,	-0.0341628213
END
BEGIN
	 0.000315552157,	 0.0015488519
	 0.00443384222,	 0.00399337965
	 0.00809186686,	 0.000810479792
	 0.00634643249,	-0.00368163202
	 0.000490810615,	 0.000411820046
	 0.00369277523,	 0.00239986814
	 0.00381962909,	-0.00313278791
	 0.000197155251,	-0.00152781791
END
BEGIN
	 0.000315555399,	 0.00154885123
	 0.00443387787,	 0.00399334062
	 0.00809188179,	 0.000810350972
	 0.00634634751,	-0.00368178454
	 0.000490818677,	 0.000411817107
	 0.00369292329,	 0.00239970746
	 0.00381938681,	-0.00313322537
	 0.000196787592,	-0.0015279901
END
BEGIN
	-0.000213396392,	-0.00101124563
	-0.00331084105,	-0.00283066388
	-0.00764458462,	-0.0004733095
	-0.00930905662,	 0.00596376624
	 0.00466399459,	 0.0182364367
	 0.0179400227,	 0.0147257595
	 0.0270175713,	-0.0174616131
	 0.0135306914,	-0.0341628213
END
BEGIN
	 0.00107824615,	 0.00606591474
	 0.018934853,	 0.0200091816
	 0.043189836,	 0.00843631838
	 0.0463709889,	-0.0215226241
	-0.00386161356,	-0.0289025683
	-0.0017764237,	-0.00115069363
	 0.0505955385,	-0.0224364393
	 0.0344497386,	-0.0584384941
END
BEGIN
	 0.979410591,	-0.193948891
	 0.678748013,	-0.726796343
	 0.126876967,	-0.982222808
	-0.467785869,	-0.868467266
	-0.965802684,	 0.165285119
	-0.68481567,	 0.696249595
	 0.438210015,	 0.862813043
	 0.854161366,	 0.444968409
END
BEGIN
	-0.000213396345,	-0.00101124564
	-0.00331084046,	-0.0028306645
	-0.00764458427,	-0.000473312085
	-0.0093090591,	 0.00596376163
	 0.00466398243,	 0.0182364389
	 0.0179400113,	 0.0147257712
	 0.0270175823,	-0.0174615916
	 0.0135307154,	-0.0341628089
END
BEGIN
	 0.000315552157,	 0.0015488519
	 0.00443384222,	 0.00399337965
	 0.00809186686,	 0.000810479792
	 0.00634643249,	-0.00368163202
	 0.000490810615,	 0.000411820046
	 0.00369277523,	 0.00239986814
	 0.00381962909,	-0.00313278791
	 0.000197155251,	-0.00152781791
END
BEGIN
	 0.979410591,	-0.193948891
	 0.678748013,	-0.726796343
	 0.126876967,	-0.982222808
	-0.467785869,	-0.868467266
	-0.965802684,	 0.165285119
	-0.68481567,	 0.696249595
	 0.438210015,	 0.862813043
	 0.854161366,	 0.444968409
END
BEGIN
	 0.00107824275,	 0.00606591544
	 0.0189348157,	 0.0200092224
	 0.0431898203,	 0.00843645279
	 0.046371077,	-0.0215224655
	-0.00386162346,	-0.0289025647
	-0.00177657753,	-0.00115052702
	 0.0505957833,	-0.0224359945
	 0.034450106,	-0.0584383204
END
BEGIN
	 0.00107541642,	 0.00605165131
	 0.0188937543,	 0.0199717118
	 0.0431123201,	 0.00842816333
	 0.046307249,	-0.0214849667
	-0.00385912784,	-0.0289032286
	-0.00180964549,	-0.0011832331
	 0.0505256107,	-0.0223901787
	 0.0344336165,	-0.0583793192
END
BEGIN
	 0.979411915,	-0.193942379
	 0.678769223,	-0.726778519
	 0.126923914,	-0.982220287
	-0.467730599,	-0.868501762
	-0.965821605,	 0.165179702
	-0.684910725,	 0.696157613
	 0.438052981,	 0.862900457
	 0.854074159,	 0.445150313
END
BEGIN
	 0.000315555399,	 0.00154885123
	 0.00443387787,	 0.00399334062
	 0.00809188179,	 0.000810350972
	 0.00634634751,	-0.00368178454
	 0.000490818677,	 0.000411817107
	 0.00369292329,	 0.00239970746
	 0.00381938681,	-0.00313322537
	 0.000196787592,	-0.0015279901
END
BEGIN
	-0.000213396345,	-0.00101124564
	-0.00331084046,	-0.0028306645
	-0.00764458427,	-0.000473312085
	-0.0093090591,	 0.00596376163
	 0.00466398243,	 0.0182364389
	 0.0179400113,	 0.0147257712
	 0.0270175823,	-0.0174615916
	 0.0135307154,	-0.0341628089
END
BEGIN
	 0.979411915,	-0.193942379
	 0.678769223,	-0.726778519
	 0.126923914,	-0.982220287
	-0.467730599,	-0.868501762
	-0.965821605,	 0.165179702
	-0.684910725,	 0.696157613
	 0.438052981,	 0.862900457
	 0.854074159,	 0.445150313
END
BEGIN
	 0.00107541286,	 0.00605165204
	 0.0188937152,	 0.0199717545
	 0.0431123035,	 0.0084283045
	 0.0463073419,	-0.0214847991
	-0.00385913243,	-0.0289032258
	-0.00180980182,	-0.00118306387
	 0.0505258655,	-0.0223897141
	 0.0344340051,	-0.0583791343
END
BEGIN
	-0.000213396392,	-0.00101124563
	-0.00331084105,	-0.00283066388
	-0.00764458462,	-0.0004733095
	-0.00930905662,	 0.00596376624
	 0.00466399459,	 0.0182364367
	 0.0179400227,	 0.0147257595
	 0.0270175713,	-0.0174616131
	 0.0135306914,	-0.0341628213
END
BEGIN
	 0.000315552157,	 0.0015488519
	 0.00443384222,	 0.00399337965
	 0.00809186686,	 0.000810479792
	 0.00634643249,	-0.00368163202
	 0.000490810615,	 0.000411820046
	 0.00369277523,	 0.00239986814
	 0.00381962909,	-0.00313278791
	 0.000197155251,	-0.00152781791
END
BEGIN
	 0.000315555399,	 0.00154885123
	 0.00443387787,	 0.00399334062
	 0.00809188179,	 0.000810350972
	 0.00634634751,	-0.00368178454
	 0.000490818677,	 0.000411817107
	 0.00369292329,	 0.00239970746
	 0.00381938681,	-0.00313322537
	 0.000196787592,	-0.0015279901
END
BEGIN
	-0.000213396392,	-0.00101124563
	-0.00331084105,	-0.00283066388
	-0.00764458462,	-0.0004733095
	-0.00930905662,	 0.00596376624
	 0.00466399459,	 0.0182364367
	 0.0179400227,	 0.0147257595
	 0.0270175713,	-0.0174616131
	 0.0135306914,	-0.0341628213
END
BEGIN
	 0.00107824615,	 0.00606591474
	 0.018934853,	 0.0200091816
	 0.043189836,	 0.00843631838
	 0.0463709889,	-0.0215226241
	-0.00386161356,	-0.0289025683
	-0.0017764237,	-0.00115069363
	 0.0505955385,	-0.0224364393
	 0.0344497386,	-0.0584384941
END
BEGIN
	 0.979410591,	-0.193948891
	 0.678748013,	-0.726796343
	 0.126876967,	-0.982222808
	-0.467785869,	-0.868467266
	-0.965802684,	 0.165285119
	-0.68481567,	 0.696249595
	 0.438210015,	 0.862813043
	 0.854161366,	 0.444968409
END
BEGIN
	-0.000213396345,	-0.00101124564
	-0.00331084046,	-0.0028306645
	-0.00764458427,	-0.000473312085
	-0.0093090591,	 0.00596376163
	 0.00466398243,	 0.0182364389
	 0.0179400113,	 0.0147257712
	 0.0270175823,	-0.0174615916
	 0.0135307154,	-0.0341628089
END
BEGIN
	 0.000315552157,	 0.0015488519
	 0.00443384222,	 0.00399337965
	 0.00809186686,	 0.000810479792
	 0.00634643249,	-0.00368163202
	 0.000490810615,	 0.000411820046
	 0.00369277523,	 0.00239986814
	 0.00381962909,	-0.00313278791
	 0.000197155251,	-0.00152781791
END
BEGIN
	 0.979410591,	-0.193948891
	 0.678748013,	-0.726796343
	 0.126876967,	-0.982222808
	-0.467785869,	-0.868467266
	-0.965802684,	 0.165285119
	-0.68481567,	 0.696249595
	 0.438210015,	 0.862813043
	 0.854161366,	 0.444968409
END
BEGIN
	 0.00107824275,	 0.00606591544
	 0.0189348157,	 0.0200092224
	 0.0431898203,	 0.00843645279
	 0.046371077,	-0.0215224655
	-0.00386162346,	-0.0289025647
	-0.00177657753,	-0.00115052702
	 0.0505957833,	-0.0224359945
	 0.034450106,	-0.0584383204
END
BEGIN
	 0.00107541642,	 0.00605165131
	 0.0188937543,	 0.0199717118
	 0.0431123201,	 0.00842816333
	 0.046307249,	-0.0214849667
	-0.00385912784,	-0.0289032286
	-0.00180964549,	-0.0011832331
	 0.0505256107,	-0.0223901787
	 0.0344336165,	-0.0583793192
END
BEGIN
	 0.979411915,	-0.193942379
	 0.678769223,	-0.726778519
	 0.126923914,	-0.982220287
	-0.467730599,	-0.868501762
	-0.965821605,	 0.165179702
	-0.684910725,	 0.696157613
	 0.438052981,	 0.862900457
	 0.854074159,	 0.445150313
END
BEGIN
	 0.000315555399,	 0.00154885123
	 0.00443387787,	 0.00399334062
	 0.00809188179,	 0.000810350972
	 0.00634634751,	-0.00368178454
	 0.000490818677,	 0.000411817107
	 0.00369292329,	 0.00239970746
	 0.00381938681,	-0.00313322537
	 0.000196787592,	-0.0015279901
END
BEGIN
	-0.000213396345,	-0.00101124564
	-0.00331084046,	-0.0028306645
	-0.00764458427,	-0.000473312085
	-0.0093090591,	 0.00596376163
	 0.00466398243,	 0.0182364389
	 0.0179400113,	 0.0147257712
	 0.0270175823,	-0.0174615916
	 0.0135307154,	-0.0341628089
END
BEGIN
	 0.979411915,	-0.193942379
	 0.678769223,	-0.726778519
	 0.126923914,	-0.982220287
	-0.467730599,	-0.868501762
	-0.965821605,	 0.165179702
	-0.684910725,	 0.696157613
	 0.438052981,	 0.862900457
	 0.854074159,	 0.445150313
END
BEGIN
	 0.00107541286,	 0.00605165204
	 0.0188937152,	 0.0199717545
	 0.0431123035,	 0.0084283045
	 0.0463073419,	-0.0214847991
	-0.00385913243,	-0.0289032258
	-0.00180980182,	-0.00118306387
	 0.0505258655,	-0.0223897141
	 0.0344340051,	-0.0583791343
END
BEGIN
	-0.000213396392,	-0.00101124563
	-0.00331084105,	-0.00283066388
	-0.00764458462,	-0.0004733095
	-0.00930905662,	 0.00596376624
	 0.00466399459,	 0.0182364367
	 0.0179400227,	 0.0147257595
	 0.0270175713,	-0.0174616131
	 0.0135306914,	-0.0341628213
END
BEGIN
	 0.000315552157,	 0.0015488519
	 0.00443384222,	 0.00399337965
	 0.00809186686,	 0.000810479792
	 0.00634643249,	-0.00368163202
	 0.000490810615,	 0.000411820046
	 0.00369277523,	 0.00239986814
	 0.00381962909,	-0.00313278791
	 0.000197155251,	-0.00152781791
END
BEGIN
	 0.000315555399,	 0.00154885123
	 0.00443387787,	 0.00399334062
	 0.00809188179,	 0.000810350972
	 0.00634634751,	-0.00368178454
	 0.000490818677,	 0.000411817107
	 0.00369292329,	 0.00239970746
	 0.00381938681,	-0.00313322537
	 0.000196787592,	-0.0015279901
END
BEGIN
	-0.000213396392,	-0.00101124563
	-0.00331084105,	-0.00283066388
	-0.00764458462,	-0.0004733095
	-0.00930905662,	 0.00596376624
	 0.00466399459,	 0.0182364367
	 0.0179400227,	 0.0147257595
	 0.0270175713,	-0.0174616131
	 0.0135306914,	-0.0341628213
END
BEGIN
	 0.00107824615,	 0.00606591474
	 0.018934853,	 0.0200091816
	 0.043189836,	 0.00843631838
	 0.0463709889,	-0.0215226241
	-0.00386161356,	-0.0289025683
	-0.0017764237,	-0.00115069363
	 0.0505955385,	-0.0224364393
	 0.0344497386,	-0.0584384941
END
BEGIN
	 0.979410591,	-0.193948891
	 0.678748013,	-0.726796343
	 0.126876967,	-0.982222808
	-0.467785869,	-0.868467266
	-0.965802684,	 0.165285119
	-0.68481567,	 0.696249595
	 0.438210015,	 0.862813043
	 0.854161366,	 0.444968409
END
BEGIN
	-0.000213396345,	-0.00101124564
	-0.00331084046,	-0.0028306645
	-0.00764458427,	-0.000473312085
	-0.0093090591,	 0.00596376163
	 0.00466398243,	 0.0182364389
	 0.0179400113,	 0.0147257712
	 0.0270175823,	-0.0174615916
	 0.0135307154,	-0.0341628089
END
BEGIN
	 0.000315552157,	 0.0015488519
	 0.00443384222,	 0.00399337965
	 0.00809186686,	 0.000810479792
	 0.00634643249,	-0.00368163202
	 0.000490810615,	 0.000411820046
	 0.00369277523,	 0.00239986814
	 0.00381962909,	-0.00313278791
	 0.000197155251,	-0.00152781791
END
BEGIN
	 0.979410591,	-0.193948891
	 0.678748013,	-0.726796343
	 0.126876967,	-0.982222808
	-0.467785869,	-0.868467266
	-0.965802684,	 0.165285119
	-0.68481567,	 0.696249595
	 0.438210015,	 0.862813043
	 0.854161366,	 0.444968409
END
BEGIN
	 0.00107824275,	 0.00606591544
	 0.0189348157,	 0.0200092224
	 0.0431898203,	 0.00843645279
	 0.046371077,	-0.0215224655
	-0.00386162346,	-0.0289025647
	-0.00177657753,	-0.00115052702
	 0.0505957833,	-0.0224359945
	 0.034450106,	-0.0584383204
END
BEGIN
	 50 ,	 0 
	 50 ,	 0 
	 50 ,	 0 
	 50 ,	 0 
	 50 ,	 0 
	 50 ,	 0 
	 50 ,	 0 
	 50 ,	 0 
END
BEGIN
	 50 ,	 0 
	 50 ,	 0 
	 50 ,	 0 
	 50 ,	 0 
	 50 ,	 0 
	 50 ,	 0 
	 50 ,	 0 
	 50 ,	 0 
END
BEGIN
	 50 ,	 0 
	 50 ,	 0 
	 50 ,	 0 
	 50 ,	 0 
	 50 ,	 0 
	 50 ,	 0 
	 50 ,	 0 
	 50 ,	 0 
END
BEGIN
	 50 ,	 0 
	 50 ,	 0 
	 50 ,	 0 
	 50 ,	 0 
	 50 ,	 0 
	 50 ,	 0 
	 50 ,	 0 
	 50 ,	 0 
END
BEGIN
	 50 ,	 0 
	 50 ,	 0 
	 50 ,	 0 
	 50 ,	 0 
	 50 ,	 0 
	 50 ,	 0 
	 50 ,	 0 
	 50 ,	 0 
END
BEGIN
	 50 ,	 0 
	 50 ,	 0 
	 50 ,	 0 
	 50 ,	 0 
	 50 ,	 0 
	 50 ,	 0 
	 50 ,	 0 
	 50 ,	 0 
END
BEGIN
	 50 ,	 0 
	 50 ,	 0 
	 50 ,	 0 
	 50 ,	 0 
	 50 ,	 0 
	 50 ,	 0 
	 50 ,	 0 
	 50 ,	 0 
END
BEGIN
	 50 ,	 0 
	 50 ,	 0 
	 50 ,	 0 
	 50 ,	 0 
	 50 ,	 0 
	 50 ,	 0 
	 50 ,	 0 
	 50 ,	 0 
END
