CITIFILE A.01.01
#Momentum: B.09.20.456 (*) 372.600 Nov 12 2011 
#Momentum Date and Time: Wed Oct 10 21:50:55 2012

NAME Momentum.SP

#  mode: MW    project: proj    reference: S_50

CONSTANT NBR_OF_PORTS 2

CONSTANT NORMALIZATION 1.007718055

VAR freq MAG 13

DATA S[1,1] RI
DATA S[1,2] RI
DATA S[2,1] RI
DATA S[2,2] RI
DATA S_50[1,1] RI
DATA S_50[1,2] RI
DATA S_50[2,1] RI
DATA S_50[2,2] RI
DATA S_Z0[1,1] RI
DATA S_Z0[1,2] RI
DATA S_Z0[2,1] RI
DATA S_Z0[2,2] RI
DATA Z0[1] RI
DATA Z0[2] RI
DATA PORTZ[1] RI
DATA PORTZ[2] RI

VAR_LIST_BEGIN
	 100000000
	 140277777.8
	 341666666.8
	 583333333.5
	 1066666667
	 1550000000
	 1791666667
	 2033333333
	 2516666667
	 2838888889
	 2865740741
	 2910493827
	 3000000000
VAR_LIST_END

BEGIN
	 0.0213560603,	-0.265589561
	-0.0238433222,	-0.183329241
	-0.030893161,	-0.0139165906
	 0.0510102766,	 0.0366938806
	 0.225925968,	-0.172514033
	-0.0705173611,	-0.521708428
	-0.351410325,	-0.494501084
	-0.577292644,	-0.315346416
	-0.662152809,	 0.257030542
	-0.34953198,	 0.7224428
	-0.176273858,	 0.804990214
	-0.140044746,	 0.300470311
	-0.266334469,	 0.561374588
END
BEGIN
	 0.957321679,	 0.0686666706
	 0.978758432,	-0.0883163839
	 0.803726605,	-0.593991817
	 0.37551343,	-0.915325547
	-0.587306367,	-0.73241608
	-0.82233681,	 0.102476505
	-0.639878026,	 0.428164499
	-0.372529739,	 0.618512326
	 0.212959689,	 0.629956247
	 0.448356505,	 0.256564363
	 0.322630524,	 0.166705192
	 0.363796752,	 0.653596591
	 0.641856494,	 0.338937077
END
BEGIN
	 0.957321679,	 0.0686666706
	 0.978758432,	-0.0883163839
	 0.803726605,	-0.593991817
	 0.37551343,	-0.915325547
	-0.587306367,	-0.73241608
	-0.82233681,	 0.102476505
	-0.639878026,	 0.428164499
	-0.372529739,	 0.618512326
	 0.212959689,	 0.629956247
	 0.448356505,	 0.256564363
	 0.322630524,	 0.166705192
	 0.363796752,	 0.653596591
	 0.641856494,	 0.338937077
END
BEGIN
	 0.0213295452,	-0.26559132
	-0.0238741739,	-0.183328299
	-0.030949984,	-0.0138795638
	 0.050960885,	 0.0368011401
	 0.226122131,	-0.172277883
	-0.0699443508,	-0.521783144
	-0.350815179,	-0.494903408
	-0.576847825,	-0.316095686
	-0.662555257,	 0.255859001
	-0.350976432,	 0.721570181
	-0.178010698,	 0.804387858
	-0.140209061,	 0.300578068
	-0.267929644,	 0.560728696
END
BEGIN
	 0.0213560603,	-0.265589561
	-0.0238433222,	-0.183329241
	-0.030893161,	-0.0139165906
	 0.0510102766,	 0.0366938806
	 0.225925968,	-0.172514033
	-0.0705173611,	-0.521708428
	-0.351410325,	-0.494501084
	-0.577292644,	-0.315346416
	-0.662152809,	 0.257030542
	-0.34953198,	 0.7224428
	-0.176273858,	 0.804990214
	-0.140044746,	 0.300470311
	-0.266334469,	 0.561374588
END
BEGIN
	 0.957321679,	 0.0686666706
	 0.978758432,	-0.0883163839
	 0.803726605,	-0.593991817
	 0.37551343,	-0.915325547
	-0.587306367,	-0.73241608
	-0.82233681,	 0.102476505
	-0.639878026,	 0.428164499
	-0.372529739,	 0.618512326
	 0.212959689,	 0.629956247
	 0.448356505,	 0.256564363
	 0.322630524,	 0.166705192
	 0.363796752,	 0.653596591
	 0.641856494,	 0.338937077
END
BEGIN
	 0.957321679,	 0.0686666706
	 0.978758432,	-0.0883163839
	 0.803726605,	-0.593991817
	 0.37551343,	-0.915325547
	-0.587306367,	-0.73241608
	-0.82233681,	 0.102476505
	-0.639878026,	 0.428164499
	-0.372529739,	 0.618512326
	 0.212959689,	 0.629956247
	 0.448356505,	 0.256564363
	 0.322630524,	 0.166705192
	 0.363796752,	 0.653596591
	 0.641856494,	 0.338937077
END
BEGIN
	 0.0213295452,	-0.26559132
	-0.0238741739,	-0.183328299
	-0.030949984,	-0.0138795638
	 0.050960885,	 0.0368011401
	 0.226122131,	-0.172277883
	-0.0699443508,	-0.521783144
	-0.350815179,	-0.494903408
	-0.576847825,	-0.316095686
	-0.662555257,	 0.255859001
	-0.350976432,	 0.721570181
	-0.178010698,	 0.804387858
	-0.140209061,	 0.300578068
	-0.267929644,	 0.560728696
END
BEGIN
	 0.0213560603,	-0.265589561
	-0.0238433222,	-0.183329241
	-0.030893161,	-0.0139165906
	 0.0510102766,	 0.0366938806
	 0.225925968,	-0.172514033
	-0.0705173611,	-0.521708428
	-0.351410325,	-0.494501084
	-0.577292644,	-0.315346416
	-0.662152809,	 0.257030542
	-0.34953198,	 0.7224428
	-0.176273858,	 0.804990214
	-0.140044746,	 0.300470311
	-0.266334469,	 0.561374588
END
BEGIN
	 0.957321679,	 0.0686666706
	 0.978758432,	-0.0883163839
	 0.803726605,	-0.593991817
	 0.37551343,	-0.915325547
	-0.587306367,	-0.73241608
	-0.82233681,	 0.102476505
	-0.639878026,	 0.428164499
	-0.372529739,	 0.618512326
	 0.212959689,	 0.629956247
	 0.448356505,	 0.256564363
	 0.322630524,	 0.166705192
	 0.363796752,	 0.653596591
	 0.641856494,	 0.338937077
END
BEGIN
	 0.957321679,	 0.0686666706
	 0.978758432,	-0.0883163839
	 0.803726605,	-0.593991817
	 0.37551343,	-0.915325547
	-0.587306367,	-0.73241608
	-0.82233681,	 0.102476505
	-0.639878026,	 0.428164499
	-0.372529739,	 0.618512326
	 0.212959689,	 0.629956247
	 0.448356505,	 0.256564363
	 0.322630524,	 0.166705192
	 0.363796752,	 0.653596591
	 0.641856494,	 0.338937077
END
BEGIN
	 0.0213295452,	-0.26559132
	-0.0238741739,	-0.183328299
	-0.030949984,	-0.0138795638
	 0.050960885,	 0.0368011401
	 0.226122131,	-0.172277883
	-0.0699443508,	-0.521783144
	-0.350815179,	-0.494903408
	-0.576847825,	-0.316095686
	-0.662555257,	 0.255859001
	-0.350976432,	 0.721570181
	-0.178010698,	 0.804387858
	-0.140209061,	 0.300578068
	-0.267929644,	 0.560728696
END
BEGIN
	 50 ,	 0 
	 50 ,	 0 
	 50 ,	 0 
	 50 ,	 0 
	 50 ,	 0 
	 50 ,	 0 
	 50 ,	 0 
	 50 ,	 0 
	 50 ,	 0 
	 50 ,	 0 
	 50 ,	 0 
	 50 ,	 0 
	 50 ,	 0 
END
BEGIN
	 50 ,	 0 
	 50 ,	 0 
	 50 ,	 0 
	 50 ,	 0 
	 50 ,	 0 
	 50 ,	 0 
	 50 ,	 0 
	 50 ,	 0 
	 50 ,	 0 
	 50 ,	 0 
	 50 ,	 0 
	 50 ,	 0 
	 50 ,	 0 
END
BEGIN
	 50 ,	 0 
	 50 ,	 0 
	 50 ,	 0 
	 50 ,	 0 
	 50 ,	 0 
	 50 ,	 0 
	 50 ,	 0 
	 50 ,	 0 
	 50 ,	 0 
	 50 ,	 0 
	 50 ,	 0 
	 50 ,	 0 
	 50 ,	 0 
END
BEGIN
	 50 ,	 0 
	 50 ,	 0 
	 50 ,	 0 
	 50 ,	 0 
	 50 ,	 0 
	 50 ,	 0 
	 50 ,	 0 
	 50 ,	 0 
	 50 ,	 0 
	 50 ,	 0 
	 50 ,	 0 
	 50 ,	 0 
	 50 ,	 0 
END
