CITIFILE A.01.01
#Momentum: B.09.20.456 (*) 372.600 Nov 12 2011 
#Momentum Date and Time: Wed Oct 10 20:49:36 2012

NAME Momentum.SP

#  mode: MW    project: proj    reference: S_50

CONSTANT NBR_OF_PORTS 4

CONSTANT NORMALIZATION 1

VAR freq MAG 8

DATA S[1,1] RI
DATA S[1,2] RI
DATA S[1,3] RI
DATA S[1,4] RI
DATA S[2,1] RI
DATA S[2,2] RI
DATA S[2,3] RI
DATA S[2,4] RI
DATA S[3,1] RI
DATA S[3,2] RI
DATA S[3,3] RI
DATA S[3,4] RI
DATA S[4,1] RI
DATA S[4,2] RI
DATA S[4,3] RI
DATA S[4,4] RI
DATA S_50[1,1] RI
DATA S_50[1,2] RI
DATA S_50[1,3] RI
DATA S_50[1,4] RI
DATA S_50[2,1] RI
DATA S_50[2,2] RI
DATA S_50[2,3] RI
DATA S_50[2,4] RI
DATA S_50[3,1] RI
DATA S_50[3,2] RI
DATA S_50[3,3] RI
DATA S_50[3,4] RI
DATA S_50[4,1] RI
DATA S_50[4,2] RI
DATA S_50[4,3] RI
DATA S_50[4,4] RI
DATA S_Z0[1,1] RI
DATA S_Z0[1,2] RI
DATA S_Z0[1,3] RI
DATA S_Z0[1,4] RI
DATA S_Z0[2,1] RI
DATA S_Z0[2,2] RI
DATA S_Z0[2,3] RI
DATA S_Z0[2,4] RI
DATA S_Z0[3,1] RI
DATA S_Z0[3,2] RI
DATA S_Z0[3,3] RI
DATA S_Z0[3,4] RI
DATA S_Z0[4,1] RI
DATA S_Z0[4,2] RI
DATA S_Z0[4,3] RI
DATA S_Z0[4,4] RI
DATA Z0[1] RI
DATA Z0[2] RI
DATA Z0[3] RI
DATA Z0[4] RI
DATA PORTZ[1] RI
DATA PORTZ[2] RI
DATA PORTZ[3] RI
DATA PORTZ[4] RI

VAR_LIST_BEGIN
	 100000000
	 422222222.3
	 1066666667
	 1711111111
	 2033333333
	 2355555555
	 2785185185
	 3000000000
VAR_LIST_END

BEGIN
	 0.00549687589,	 0.0266674689
	 0.0769549062,	 0.0718540127
	 0.12630272,	-0.0638962518
	 0.00322725454,	-0.00921542425
	 0.0560314253,	 0.0483241053
	 0.128119975,	 0.0174384267
	 0.108992652,	-0.0806873129
	 0.058119778,	-0.0919051588
END
BEGIN
	 0.978769035,	-0.194680546
	 0.674036551,	-0.72239326
	-0.445839451,	-0.866958654
	-0.965322319,	 0.142182468
	-0.693393735,	 0.673299788
	-0.173754234,	 0.938787395
	 0.560149146,	 0.763428398
	 0.81733092,	 0.476588825
END
BEGIN
	 0.00247229098,	 0.0114349155
	 0.0335008755,	 0.0274377752
	 0.0401209127,	-0.028414569
	 0.0030813679,	 0.014868287
	 0.0389706993,	 0.0257909644
	 0.0592395143,	-0.00687194777
	 0.0194623,	-0.0375406027
	-0.00443949229,	-0.0218926622
END
BEGIN
	-0.00165478103,	-0.00672001067
	-0.0225273895,	-0.014720417
	-0.0432981247,	 0.0309735806
	 0.0153926086,	 0.0914283297
	 0.0834862321,	 0.0773977933
	 0.128793699,	 0.0130127981
	 0.113941013,	-0.0952496748
	 0.0755477756,	-0.142628229
END
BEGIN
	 0.978769035,	-0.194680546
	 0.674036551,	-0.72239326
	-0.445839451,	-0.866958654
	-0.965322319,	 0.142182468
	-0.693393735,	 0.673299788
	-0.173754234,	 0.938787395
	 0.560149146,	 0.763428398
	 0.81733092,	 0.476588825
END
BEGIN
	 0.00549687702,	 0.0266674701
	 0.0769550009,	 0.071854042
	 0.12630291,	-0.0638972802
	 0.00322533112,	-0.00921459545
	 0.0560320347,	 0.0483266376
	 0.12812379,	 0.0174382585
	 0.108992285,	-0.0806934971
	 0.0581144324,	-0.0919101064
END
BEGIN
	-0.00165466584,	-0.00672003453
	-0.0225260011,	-0.0147219326
	-0.0433042127,	 0.0309619928
	 0.0153585355,	 0.0914338717
	 0.0834518271,	 0.0774323879
	 0.128782922,	 0.0130772958
	 0.113996817,	-0.0951762153
	 0.0756419178,	-0.142575475
END
BEGIN
	 0.00247229119,	 0.0114349155
	 0.0335008777,	 0.0274377728
	 0.0401209088,	-0.0284145768
	 0.00308137932,	 0.0148682846
	 0.0389707213,	 0.0257909418
	 0.0592395228,	-0.00687199759
	 0.0194622637,	-0.0375406534
	-0.00443954222,	-0.0218926934
END
BEGIN
	 0.00247229098,	 0.0114349155
	 0.0335008755,	 0.0274377752
	 0.0401209127,	-0.028414569
	 0.0030813679,	 0.014868287
	 0.0389706993,	 0.0257909644
	 0.0592395143,	-0.00687194777
	 0.0194623,	-0.0375406027
	-0.00443949229,	-0.0218926622
END
BEGIN
	-0.00165466584,	-0.00672003453
	-0.0225260011,	-0.0147219326
	-0.0433042127,	 0.0309619928
	 0.0153585355,	 0.0914338717
	 0.0834518271,	 0.0774323879
	 0.128782922,	 0.0130772958
	 0.113996817,	-0.0951762153
	 0.0756419178,	-0.142575475
END
BEGIN
	 0.00549687701,	 0.0266674701
	 0.076955001,	 0.0718540421
	 0.12630291,	-0.0638972807
	 0.00322532944,	-0.00921459431
	 0.0560320357,	 0.0483266413
	 0.128123796,	 0.0174382598
	 0.108992289,	-0.0806935057
	 0.0581144305,	-0.0919101175
END
BEGIN
	 0.978769035,	-0.194680546
	 0.674036551,	-0.72239326
	-0.445839451,	-0.866958654
	-0.965322319,	 0.142182469
	-0.693393734,	 0.673299789
	-0.173754233,	 0.938787395
	 0.560149148,	 0.763428396
	 0.817330922,	 0.476588822
END
BEGIN
	-0.00165478103,	-0.00672001067
	-0.0225273895,	-0.014720417
	-0.0432981247,	 0.0309735806
	 0.0153926086,	 0.0914283297
	 0.0834862321,	 0.0773977933
	 0.128793699,	 0.0130127981
	 0.113941013,	-0.0952496748
	 0.0755477756,	-0.142628229
END
BEGIN
	 0.00247229119,	 0.0114349155
	 0.0335008777,	 0.0274377728
	 0.0401209088,	-0.0284145768
	 0.00308137932,	 0.0148682846
	 0.0389707213,	 0.0257909418
	 0.0592395228,	-0.00687199759
	 0.0194622637,	-0.0375406534
	-0.00443954222,	-0.0218926934
END
BEGIN
	 0.978769035,	-0.194680546
	 0.674036551,	-0.72239326
	-0.445839451,	-0.866958654
	-0.965322319,	 0.142182469
	-0.693393734,	 0.673299789
	-0.173754233,	 0.938787395
	 0.560149148,	 0.763428396
	 0.817330922,	 0.476588822
END
BEGIN
	 0.0054968759,	 0.0266674689
	 0.0769549062,	 0.0718540126
	 0.126302719,	-0.0638962514
	 0.00322725613,	-0.00921542588
	 0.0560314238,	 0.048324101
	 0.128119968,	 0.0174384249
	 0.108992646,	-0.0806873037
	 0.0581197784,	-0.0919051462
END
BEGIN
	 0.00549687589,	 0.0266674689
	 0.0769549062,	 0.0718540127
	 0.12630272,	-0.0638962518
	 0.00322725454,	-0.00921542425
	 0.0560314253,	 0.0483241053
	 0.128119975,	 0.0174384267
	 0.108992652,	-0.0806873129
	 0.058119778,	-0.0919051588
END
BEGIN
	 0.978769035,	-0.194680546
	 0.674036551,	-0.72239326
	-0.445839451,	-0.866958654
	-0.965322319,	 0.142182468
	-0.693393735,	 0.673299788
	-0.173754234,	 0.938787395
	 0.560149146,	 0.763428398
	 0.81733092,	 0.476588825
END
BEGIN
	 0.00247229098,	 0.0114349155
	 0.0335008755,	 0.0274377752
	 0.0401209127,	-0.028414569
	 0.0030813679,	 0.014868287
	 0.0389706993,	 0.0257909644
	 0.0592395143,	-0.00687194777
	 0.0194623,	-0.0375406027
	-0.00443949229,	-0.0218926622
END
BEGIN
	-0.00165478103,	-0.00672001067
	-0.0225273895,	-0.014720417
	-0.0432981247,	 0.0309735806
	 0.0153926086,	 0.0914283297
	 0.0834862321,	 0.0773977933
	 0.128793699,	 0.0130127981
	 0.113941013,	-0.0952496748
	 0.0755477756,	-0.142628229
END
BEGIN
	 0.978769035,	-0.194680546
	 0.674036551,	-0.72239326
	-0.445839451,	-0.866958654
	-0.965322319,	 0.142182468
	-0.693393735,	 0.673299788
	-0.173754234,	 0.938787395
	 0.560149146,	 0.763428398
	 0.81733092,	 0.476588825
END
BEGIN
	 0.00549687702,	 0.0266674701
	 0.0769550009,	 0.071854042
	 0.12630291,	-0.0638972802
	 0.00322533112,	-0.00921459545
	 0.0560320347,	 0.0483266376
	 0.12812379,	 0.0174382585
	 0.108992285,	-0.0806934971
	 0.0581144324,	-0.0919101064
END
BEGIN
	-0.00165466584,	-0.00672003453
	-0.0225260011,	-0.0147219326
	-0.0433042127,	 0.0309619928
	 0.0153585355,	 0.0914338717
	 0.0834518271,	 0.0774323879
	 0.128782922,	 0.0130772958
	 0.113996817,	-0.0951762153
	 0.0756419178,	-0.142575475
END
BEGIN
	 0.00247229119,	 0.0114349155
	 0.0335008777,	 0.0274377728
	 0.0401209088,	-0.0284145768
	 0.00308137932,	 0.0148682846
	 0.0389707213,	 0.0257909418
	 0.0592395228,	-0.00687199759
	 0.0194622637,	-0.0375406534
	-0.00443954222,	-0.0218926934
END
BEGIN
	 0.00247229098,	 0.0114349155
	 0.0335008755,	 0.0274377752
	 0.0401209127,	-0.028414569
	 0.0030813679,	 0.014868287
	 0.0389706993,	 0.0257909644
	 0.0592395143,	-0.00687194777
	 0.0194623,	-0.0375406027
	-0.00443949229,	-0.0218926622
END
BEGIN
	-0.00165466584,	-0.00672003453
	-0.0225260011,	-0.0147219326
	-0.0433042127,	 0.0309619928
	 0.0153585355,	 0.0914338717
	 0.0834518271,	 0.0774323879
	 0.128782922,	 0.0130772958
	 0.113996817,	-0.0951762153
	 0.0756419178,	-0.142575475
END
BEGIN
	 0.00549687701,	 0.0266674701
	 0.076955001,	 0.0718540421
	 0.12630291,	-0.0638972807
	 0.00322532944,	-0.00921459431
	 0.0560320357,	 0.0483266413
	 0.128123796,	 0.0174382598
	 0.108992289,	-0.0806935057
	 0.0581144305,	-0.0919101175
END
BEGIN
	 0.978769035,	-0.194680546
	 0.674036551,	-0.72239326
	-0.445839451,	-0.866958654
	-0.965322319,	 0.142182469
	-0.693393734,	 0.673299789
	-0.173754233,	 0.938787395
	 0.560149148,	 0.763428396
	 0.817330922,	 0.476588822
END
BEGIN
	-0.00165478103,	-0.00672001067
	-0.0225273895,	-0.014720417
	-0.0432981247,	 0.0309735806
	 0.0153926086,	 0.0914283297
	 0.0834862321,	 0.0773977933
	 0.128793699,	 0.0130127981
	 0.113941013,	-0.0952496748
	 0.0755477756,	-0.142628229
END
BEGIN
	 0.00247229119,	 0.0114349155
	 0.0335008777,	 0.0274377728
	 0.0401209088,	-0.0284145768
	 0.00308137932,	 0.0148682846
	 0.0389707213,	 0.0257909418
	 0.0592395228,	-0.00687199759
	 0.0194622637,	-0.0375406534
	-0.00443954222,	-0.0218926934
END
BEGIN
	 0.978769035,	-0.194680546
	 0.674036551,	-0.72239326
	-0.445839451,	-0.866958654
	-0.965322319,	 0.142182469
	-0.693393734,	 0.673299789
	-0.173754233,	 0.938787395
	 0.560149148,	 0.763428396
	 0.817330922,	 0.476588822
END
BEGIN
	 0.0054968759,	 0.0266674689
	 0.0769549062,	 0.0718540126
	 0.126302719,	-0.0638962514
	 0.00322725613,	-0.00921542588
	 0.0560314238,	 0.048324101
	 0.128119968,	 0.0174384249
	 0.108992646,	-0.0806873037
	 0.0581197784,	-0.0919051462
END
BEGIN
	 0.00549687589,	 0.0266674689
	 0.0769549062,	 0.0718540127
	 0.12630272,	-0.0638962518
	 0.00322725454,	-0.00921542425
	 0.0560314253,	 0.0483241053
	 0.128119975,	 0.0174384267
	 0.108992652,	-0.0806873129
	 0.058119778,	-0.0919051588
END
BEGIN
	 0.978769035,	-0.194680546
	 0.674036551,	-0.72239326
	-0.445839451,	-0.866958654
	-0.965322319,	 0.142182468
	-0.693393735,	 0.673299788
	-0.173754234,	 0.938787395
	 0.560149146,	 0.763428398
	 0.81733092,	 0.476588825
END
BEGIN
	 0.00247229098,	 0.0114349155
	 0.0335008755,	 0.0274377752
	 0.0401209127,	-0.028414569
	 0.0030813679,	 0.014868287
	 0.0389706993,	 0.0257909644
	 0.0592395143,	-0.00687194777
	 0.0194623,	-0.0375406027
	-0.00443949229,	-0.0218926622
END
BEGIN
	-0.00165478103,	-0.00672001067
	-0.0225273895,	-0.014720417
	-0.0432981247,	 0.0309735806
	 0.0153926086,	 0.0914283297
	 0.0834862321,	 0.0773977933
	 0.128793699,	 0.0130127981
	 0.113941013,	-0.0952496748
	 0.0755477756,	-0.142628229
END
BEGIN
	 0.978769035,	-0.194680546
	 0.674036551,	-0.72239326
	-0.445839451,	-0.866958654
	-0.965322319,	 0.142182468
	-0.693393735,	 0.673299788
	-0.173754234,	 0.938787395
	 0.560149146,	 0.763428398
	 0.81733092,	 0.476588825
END
BEGIN
	 0.00549687702,	 0.0266674701
	 0.0769550009,	 0.071854042
	 0.12630291,	-0.0638972802
	 0.00322533112,	-0.00921459545
	 0.0560320347,	 0.0483266376
	 0.12812379,	 0.0174382585
	 0.108992285,	-0.0806934971
	 0.0581144324,	-0.0919101064
END
BEGIN
	-0.00165466584,	-0.00672003453
	-0.0225260011,	-0.0147219326
	-0.0433042127,	 0.0309619928
	 0.0153585355,	 0.0914338717
	 0.0834518271,	 0.0774323879
	 0.128782922,	 0.0130772958
	 0.113996817,	-0.0951762153
	 0.0756419178,	-0.142575475
END
BEGIN
	 0.00247229119,	 0.0114349155
	 0.0335008777,	 0.0274377728
	 0.0401209088,	-0.0284145768
	 0.00308137932,	 0.0148682846
	 0.0389707213,	 0.0257909418
	 0.0592395228,	-0.00687199759
	 0.0194622637,	-0.0375406534
	-0.00443954222,	-0.0218926934
END
BEGIN
	 0.00247229098,	 0.0114349155
	 0.0335008755,	 0.0274377752
	 0.0401209127,	-0.028414569
	 0.0030813679,	 0.014868287
	 0.0389706993,	 0.0257909644
	 0.0592395143,	-0.00687194777
	 0.0194623,	-0.0375406027
	-0.00443949229,	-0.0218926622
END
BEGIN
	-0.00165466584,	-0.00672003453
	-0.0225260011,	-0.0147219326
	-0.0433042127,	 0.0309619928
	 0.0153585355,	 0.0914338717
	 0.0834518271,	 0.0774323879
	 0.128782922,	 0.0130772958
	 0.113996817,	-0.0951762153
	 0.0756419178,	-0.142575475
END
BEGIN
	 0.00549687701,	 0.0266674701
	 0.076955001,	 0.0718540421
	 0.12630291,	-0.0638972807
	 0.00322532944,	-0.00921459431
	 0.0560320357,	 0.0483266413
	 0.128123796,	 0.0174382598
	 0.108992289,	-0.0806935057
	 0.0581144305,	-0.0919101175
END
BEGIN
	 0.978769035,	-0.194680546
	 0.674036551,	-0.72239326
	-0.445839451,	-0.866958654
	-0.965322319,	 0.142182469
	-0.693393734,	 0.673299789
	-0.173754233,	 0.938787395
	 0.560149148,	 0.763428396
	 0.817330922,	 0.476588822
END
BEGIN
	-0.00165478103,	-0.00672001067
	-0.0225273895,	-0.014720417
	-0.0432981247,	 0.0309735806
	 0.0153926086,	 0.0914283297
	 0.0834862321,	 0.0773977933
	 0.128793699,	 0.0130127981
	 0.113941013,	-0.0952496748
	 0.0755477756,	-0.142628229
END
BEGIN
	 0.00247229119,	 0.0114349155
	 0.0335008777,	 0.0274377728
	 0.0401209088,	-0.0284145768
	 0.00308137932,	 0.0148682846
	 0.0389707213,	 0.0257909418
	 0.0592395228,	-0.00687199759
	 0.0194622637,	-0.0375406534
	-0.00443954222,	-0.0218926934
END
BEGIN
	 0.978769035,	-0.194680546
	 0.674036551,	-0.72239326
	-0.445839451,	-0.866958654
	-0.965322319,	 0.142182469
	-0.693393734,	 0.673299789
	-0.173754233,	 0.938787395
	 0.560149148,	 0.763428396
	 0.817330922,	 0.476588822
END
BEGIN
	 0.0054968759,	 0.0266674689
	 0.0769549062,	 0.0718540126
	 0.126302719,	-0.0638962514
	 0.00322725613,	-0.00921542588
	 0.0560314238,	 0.048324101
	 0.128119968,	 0.0174384249
	 0.108992646,	-0.0806873037
	 0.0581197784,	-0.0919051462
END
BEGIN
	 50 ,	 0 
	 50 ,	 0 
	 50 ,	 0 
	 50 ,	 0 
	 50 ,	 0 
	 50 ,	 0 
	 50 ,	 0 
	 50 ,	 0 
END
BEGIN
	 50 ,	 0 
	 50 ,	 0 
	 50 ,	 0 
	 50 ,	 0 
	 50 ,	 0 
	 50 ,	 0 
	 50 ,	 0 
	 50 ,	 0 
END
BEGIN
	 50 ,	 0 
	 50 ,	 0 
	 50 ,	 0 
	 50 ,	 0 
	 50 ,	 0 
	 50 ,	 0 
	 50 ,	 0 
	 50 ,	 0 
END
BEGIN
	 50 ,	 0 
	 50 ,	 0 
	 50 ,	 0 
	 50 ,	 0 
	 50 ,	 0 
	 50 ,	 0 
	 50 ,	 0 
	 50 ,	 0 
END
BEGIN
	 50 ,	 0 
	 50 ,	 0 
	 50 ,	 0 
	 50 ,	 0 
	 50 ,	 0 
	 50 ,	 0 
	 50 ,	 0 
	 50 ,	 0 
END
BEGIN
	 50 ,	 0 
	 50 ,	 0 
	 50 ,	 0 
	 50 ,	 0 
	 50 ,	 0 
	 50 ,	 0 
	 50 ,	 0 
	 50 ,	 0 
END
BEGIN
	 50 ,	 0 
	 50 ,	 0 
	 50 ,	 0 
	 50 ,	 0 
	 50 ,	 0 
	 50 ,	 0 
	 50 ,	 0 
	 50 ,	 0 
END
BEGIN
	 50 ,	 0 
	 50 ,	 0 
	 50 ,	 0 
	 50 ,	 0 
	 50 ,	 0 
	 50 ,	 0 
	 50 ,	 0 
	 50 ,	 0 
END
