CITIFILE A.01.01
#Momentum: B.09.20.456 (*) 372.600 Nov 12 2011 
#Momentum Date and Time: Wed Oct 10 21:10:19 2012

NAME Momentum.SP

#  mode: MW    project: proj    reference: S_50

CONSTANT NBR_OF_PORTS 2

CONSTANT NORMALIZATION 1

VAR freq MAG 11

DATA S[1,1] RI
DATA S[1,2] RI
DATA S[2,1] RI
DATA S[2,2] RI
DATA S_50[1,1] RI
DATA S_50[1,2] RI
DATA S_50[2,1] RI
DATA S_50[2,2] RI
DATA S_Z0[1,1] RI
DATA S_Z0[1,2] RI
DATA S_Z0[2,1] RI
DATA S_Z0[2,2] RI
DATA Z0[1] RI
DATA Z0[2] RI
DATA PORTZ[1] RI
DATA PORTZ[2] RI

VAR_LIST_BEGIN
	 100000000
	 341666666.8
	 583333333.5
	 1066666667
	 1550000000
	 1952777778
	 2033333333
	 2194444444
	 2516666667
	 2838888889
	 3000000000
VAR_LIST_END

BEGIN
	 0.00299703539,	 0.0162737754
	 0.0351337493,	 0.0389678935
	 0.0725602758,	 0.0239064373
	 0.0707747808,	-0.0486016645
	 0.0108630451,	-0.0476529192
	 0.0113878866,	 0.000612628818
	 0.019540203,	 0.00797282864
	 0.0413603269,	 0.0150652368
	 0.0808496404,	-0.0105581799
	 0.0730541521,	-0.0572632588
	 0.0528305222,	-0.0702846841
END
BEGIN
	 0.979820765,	-0.192321545
	 0.789210735,	-0.609994547
	 0.432345822,	-0.898070551
	-0.451936204,	-0.881305161
	-0.966320775,	-0.179015973
	-0.819685222,	 0.537267779
	-0.727741247,	 0.655588557
	-0.496040214,	 0.843102382
	 0.0757022185,	 0.973229701
	 0.61097338,	 0.753701537
	 0.800219406,	 0.538967576
END
BEGIN
	 0.979820765,	-0.192321545
	 0.789210735,	-0.609994547
	 0.432345822,	-0.898070551
	-0.451936204,	-0.881305161
	-0.966320775,	-0.179015973
	-0.819685222,	 0.537267779
	-0.727741247,	 0.655588557
	-0.496040214,	 0.843102382
	 0.0757022185,	 0.973229701
	 0.61097338,	 0.753701537
	 0.800219406,	 0.538967576
END
BEGIN
	 0.00299456923,	 0.016274221
	 0.0351116872,	 0.0389864796
	 0.0725324768,	 0.0239801482
	 0.0708861182,	-0.0484526551
	 0.0110192954,	-0.0476602505
	 0.0113269682,	 0.000656393678
	 0.0194404121,	 0.00807980006
	 0.0412271965,	 0.0153551896
	 0.0810171965,	-0.00983540265
	 0.0738947192,	-0.05655066
	 0.0539409706,	-0.0698174703
END
BEGIN
	 0.00299703539,	 0.0162737754
	 0.0351337493,	 0.0389678935
	 0.0725602758,	 0.0239064373
	 0.0707747808,	-0.0486016645
	 0.0108630451,	-0.0476529192
	 0.0113878866,	 0.000612628818
	 0.019540203,	 0.00797282864
	 0.0413603269,	 0.0150652368
	 0.0808496404,	-0.0105581799
	 0.0730541521,	-0.0572632588
	 0.0528305222,	-0.0702846841
END
BEGIN
	 0.979820765,	-0.192321545
	 0.789210735,	-0.609994547
	 0.432345822,	-0.898070551
	-0.451936204,	-0.881305161
	-0.966320775,	-0.179015973
	-0.819685222,	 0.537267779
	-0.727741247,	 0.655588557
	-0.496040214,	 0.843102382
	 0.0757022185,	 0.973229701
	 0.61097338,	 0.753701537
	 0.800219406,	 0.538967576
END
BEGIN
	 0.979820765,	-0.192321545
	 0.789210735,	-0.609994547
	 0.432345822,	-0.898070551
	-0.451936204,	-0.881305161
	-0.966320775,	-0.179015973
	-0.819685222,	 0.537267779
	-0.727741247,	 0.655588557
	-0.496040214,	 0.843102382
	 0.0757022185,	 0.973229701
	 0.61097338,	 0.753701537
	 0.800219406,	 0.538967576
END
BEGIN
	 0.00299456923,	 0.016274221
	 0.0351116872,	 0.0389864796
	 0.0725324768,	 0.0239801482
	 0.0708861182,	-0.0484526551
	 0.0110192954,	-0.0476602505
	 0.0113269682,	 0.000656393678
	 0.0194404121,	 0.00807980006
	 0.0412271965,	 0.0153551896
	 0.0810171965,	-0.00983540265
	 0.0738947192,	-0.05655066
	 0.0539409706,	-0.0698174703
END
BEGIN
	 0.00299703539,	 0.0162737754
	 0.0351337493,	 0.0389678935
	 0.0725602758,	 0.0239064373
	 0.0707747808,	-0.0486016645
	 0.0108630451,	-0.0476529192
	 0.0113878866,	 0.000612628818
	 0.019540203,	 0.00797282864
	 0.0413603269,	 0.0150652368
	 0.0808496404,	-0.0105581799
	 0.0730541521,	-0.0572632588
	 0.0528305222,	-0.0702846841
END
BEGIN
	 0.979820765,	-0.192321545
	 0.789210735,	-0.609994547
	 0.432345822,	-0.898070551
	-0.451936204,	-0.881305161
	-0.966320775,	-0.179015973
	-0.819685222,	 0.537267779
	-0.727741247,	 0.655588557
	-0.496040214,	 0.843102382
	 0.0757022185,	 0.973229701
	 0.61097338,	 0.753701537
	 0.800219406,	 0.538967576
END
BEGIN
	 0.979820765,	-0.192321545
	 0.789210735,	-0.609994547
	 0.432345822,	-0.898070551
	-0.451936204,	-0.881305161
	-0.966320775,	-0.179015973
	-0.819685222,	 0.537267779
	-0.727741247,	 0.655588557
	-0.496040214,	 0.843102382
	 0.0757022185,	 0.973229701
	 0.61097338,	 0.753701537
	 0.800219406,	 0.538967576
END
BEGIN
	 0.00299456923,	 0.016274221
	 0.0351116872,	 0.0389864796
	 0.0725324768,	 0.0239801482
	 0.0708861182,	-0.0484526551
	 0.0110192954,	-0.0476602505
	 0.0113269682,	 0.000656393678
	 0.0194404121,	 0.00807980006
	 0.0412271965,	 0.0153551896
	 0.0810171965,	-0.00983540265
	 0.0738947192,	-0.05655066
	 0.0539409706,	-0.0698174703
END
BEGIN
	 50 ,	 0 
	 50 ,	 0 
	 50 ,	 0 
	 50 ,	 0 
	 50 ,	 0 
	 50 ,	 0 
	 50 ,	 0 
	 50 ,	 0 
	 50 ,	 0 
	 50 ,	 0 
	 50 ,	 0 
END
BEGIN
	 50 ,	 0 
	 50 ,	 0 
	 50 ,	 0 
	 50 ,	 0 
	 50 ,	 0 
	 50 ,	 0 
	 50 ,	 0 
	 50 ,	 0 
	 50 ,	 0 
	 50 ,	 0 
	 50 ,	 0 
END
BEGIN
	 50 ,	 0 
	 50 ,	 0 
	 50 ,	 0 
	 50 ,	 0 
	 50 ,	 0 
	 50 ,	 0 
	 50 ,	 0 
	 50 ,	 0 
	 50 ,	 0 
	 50 ,	 0 
	 50 ,	 0 
END
BEGIN
	 50 ,	 0 
	 50 ,	 0 
	 50 ,	 0 
	 50 ,	 0 
	 50 ,	 0 
	 50 ,	 0 
	 50 ,	 0 
	 50 ,	 0 
	 50 ,	 0 
	 50 ,	 0 
	 50 ,	 0 
END
