CITIFILE A.01.01
#Momentum: B.09.20.456 (*) 372.600 Nov 12 2011 
#Momentum Date and Time: Wed Oct 10 21:10:19 2012

NAME Momentum.SP

#  mode: MW    reference: S_50

CONSTANT NBR_OF_PORTS 2

CONSTANT NORMALIZATION 1

VAR freq MAG 293

DATA S[1,1] RI
DATA S[1,2] RI
DATA S[2,1] RI
DATA S[2,2] RI
DATA S_50[1,1] RI
DATA S_50[1,2] RI
DATA S_50[2,1] RI
DATA S_50[2,2] RI
DATA S_Z0[1,1] RI
DATA S_Z0[1,2] RI
DATA S_Z0[2,1] RI
DATA S_Z0[2,2] RI
DATA Z0[1] RI
DATA Z0[2] RI
DATA PORTZ[1] RI
DATA PORTZ[2] RI

VAR_LIST_BEGIN
	 100000000
	 107552083.3
	 115104166.7
	 122656250
	 130208333.3
	 137760416.7
	 145312500
	 152864583.4
	 160416666.7
	 167968750
	 175520833.4
	 183072916.7
	 190625000.1
	 198177083.4
	 205729166.7
	 213281250.1
	 220833333.4
	 228385416.7
	 235937500.1
	 243489583.4
	 251041666.8
	 258593750.1
	 266145833.4
	 273697916.8
	 281250000.1
	 288802083.4
	 296354166.8
	 303906250.1
	 311458333.5
	 319010416.8
	 326562500.1
	 334114583.5
	 341666666.8
	 349218750.1
	 356770833.5
	 364322916.8
	 371875000.1
	 379427083.5
	 386979166.8
	 394531250.1
	 402083333.5
	 409635416.8
	 417187500.1
	 424739583.5
	 432291666.8
	 439843750.1
	 447395833.5
	 454947916.8
	 462500000.1
	 470052083.5
	 477604166.8
	 485156250.2
	 492708333.5
	 500260416.8
	 507812500.2
	 515364583.5
	 522916666.8
	 530468750.2
	 538020833.5
	 545572916.8
	 553125000.2
	 560677083.5
	 568229166.8
	 575781250.2
	 583333333.5
	 590885416.8
	 598437500.2
	 605989583.5
	 613541666.8
	 621093750.2
	 628645833.5
	 636197916.9
	 643750000.2
	 651302083.5
	 658854166.9
	 666406250.2
	 673958333.5
	 681510416.9
	 689062500.2
	 696614583.5
	 704166666.9
	 711718750.2
	 719270833.5
	 726822916.9
	 734375000.2
	 741927083.6
	 749479166.9
	 757031250.2
	 764583333.6
	 772135416.9
	 779687500.2
	 787239583.6
	 794791666.9
	 802343750.2
	 809895833.6
	 817447916.9
	 825000000.3
	 832552083.6
	 840104166.9
	 847656250.3
	 855208333.6
	 862760416.9
	 870312500.3
	 877864583.6
	 885416666.9
	 892968750.3
	 900520833.6
	 908072916.9
	 915625000.3
	 923177083.6
	 930729167
	 938281250.3
	 945833333.6
	 953385417
	 960937500.3
	 968489583.6
	 976041667
	 983593750.3
	 991145833.6
	 998697917
	 1006250000
	 1021354167
	 1036458334
	 1051562500
	 1066666667
	 1081770834
	 1096875000
	 1111979167
	 1127083334
	 1142187500
	 1157291667
	 1172395834
	 1187500000
	 1202604167
	 1217708334
	 1232812500
	 1247916667
	 1263020834
	 1278125000
	 1293229167
	 1308333334
	 1323437500
	 1338541667
	 1353645833
	 1368750000
	 1383854167
	 1398958333
	 1414062500
	 1429166667
	 1444270833
	 1459375000
	 1474479167
	 1489583333
	 1504687500
	 1519791667
	 1534895833
	 1550000000
	 1562586806
	 1575173611
	 1587760417
	 1600347222
	 1612934028
	 1625520833
	 1638107639
	 1650694445
	 1663281250
	 1675868056
	 1688454861
	 1701041667
	 1713628472
	 1726215278
	 1738802083
	 1751388889
	 1763975695
	 1776562500
	 1789149306
	 1801736111
	 1814322917
	 1826909722
	 1839496528
	 1852083334
	 1864670139
	 1877256945
	 1889843750
	 1902430556
	 1915017361
	 1927604167
	 1940190972
	 1952777778
	 1962847222
	 1972916667
	 1982986111
	 1993055556
	 2003125000
	 2013194444
	 2023263889
	 2033333333
	 2043402777
	 2053472222
	 2063541666
	 2073611111
	 2083680555
	 2093750000
	 2103819444
	 2113888889
	 2123958333
	 2134027777
	 2144097222
	 2154166666
	 2164236111
	 2174305555
	 2184375000
	 2194444444
	 2204513888
	 2214583333
	 2224652777
	 2234722222
	 2244791666
	 2254861111
	 2264930555
	 2275000000
	 2285069444
	 2295138889
	 2305208333
	 2315277778
	 2325347222
	 2335416667
	 2345486111
	 2355555556
	 2365625000
	 2375694444
	 2385763889
	 2395833333
	 2405902778
	 2415972222
	 2426041667
	 2436111111
	 2446180556
	 2456250000
	 2466319445
	 2476388889
	 2486458334
	 2496527778
	 2506597223
	 2516666667
	 2526736111
	 2536805556
	 2546875000
	 2556944445
	 2567013889
	 2577083334
	 2587152778
	 2597222223
	 2607291667
	 2617361111
	 2627430556
	 2637500000
	 2647569445
	 2657638889
	 2667708334
	 2677777778
	 2687847222
	 2697916667
	 2707986111
	 2718055556
	 2728125000
	 2738194445
	 2748263889
	 2758333334
	 2768402778
	 2778472222
	 2788541667
	 2798611111
	 2808680556
	 2818750000
	 2828819445
	 2838888889
	 2848958333
	 2859027778
	 2869097222
	 2879166667
	 2889236111
	 2899305556
	 2909375000
	 2919444445
	 2929513889
	 2939583333
	 2949652778
	 2959722222
	 2969791667
	 2979861111
	 2989930556
	 3000000000
VAR_LIST_END

BEGIN
	 0.002997,	 0.016274
	 0.0035379,	 0.017451
	 0.0041201,	 0.018609
	 0.0047424,	 0.019745
	 0.0054037,	 0.020859
	 0.0061029,	 0.021948
	 0.0068389,	 0.023012
	 0.0076106,	 0.02405
	 0.0084168,	 0.02506
	 0.0092566,	 0.026041
	 0.010129,	 0.026992
	 0.011032,	 0.027913
	 0.011966,	 0.028803
	 0.012928,	 0.029659
	 0.013918,	 0.030483
	 0.014936,	 0.031273
	 0.015978,	 0.032028
	 0.017045,	 0.032747
	 0.018135,	 0.033431
	 0.019247,	 0.034078
	 0.020379,	 0.034687
	 0.021532,	 0.035259
	 0.022702,	 0.035793
	 0.023889,	 0.036289
	 0.025092,	 0.036745
	 0.02631,	 0.037163
	 0.027541,	 0.03754
	 0.028784,	 0.037878
	 0.030037,	 0.038177
	 0.0313,	 0.038435
	 0.032571,	 0.038653
	 0.03385,	 0.03883
	 0.035134,	 0.038968
	 0.036422,	 0.039065
	 0.037714,	 0.039122
	 0.039008,	 0.03914
	 0.040303,	 0.039117
	 0.041597,	 0.039054
	 0.04289,	 0.038953
	 0.04418,	 0.038811
	 0.045467,	 0.038631
	 0.046748,	 0.038413
	 0.048024,	 0.038156
	 0.049292,	 0.037861
	 0.050552,	 0.037529
	 0.051803,	 0.03716
	 0.053043,	 0.036754
	 0.054273,	 0.036312
	 0.055489,	 0.035835
	 0.056693,	 0.035323
	 0.057882,	 0.034777
	 0.059056,	 0.034197
	 0.060214,	 0.033584
	 0.061354,	 0.032938
	 0.062478,	 0.032261
	 0.063582,	 0.031553
	 0.064667,	 0.030814
	 0.065732,	 0.030046
	 0.066776,	 0.029249
	 0.067798,	 0.028424
	 0.068798,	 0.027572
	 0.069774,	 0.026693
	 0.070727,	 0.025789
	 0.071656,	 0.02486
	 0.07256,	 0.023906
	 0.073439,	 0.02293
	 0.074292,	 0.021931
	 0.075118,	 0.020911
	 0.075917,	 0.01987
	 0.076689,	 0.018809
	 0.077433,	 0.017729
	 0.078149,	 0.016632
	 0.078836,	 0.015517
	 0.079495,	 0.014386
	 0.080124,	 0.013239
	 0.080724,	 0.012078
	 0.081294,	 0.010904
	 0.081834,	 0.0097166
	 0.082344,	 0.0085175
	 0.082824,	 0.0073075
	 0.083273,	 0.0060875
	 0.083691,	 0.0048582
	 0.084078,	 0.0036207
	 0.084435,	 0.0023758
	 0.08476,	 0.0011243
	 0.085054,	-0.00013286
	 0.085318,	-0.0013948
	 0.08555,	-0.0026608
	 0.085751,	-0.0039298
	 0.085921,	-0.0052011
	 0.086061,	-0.0064738
	 0.086169,	-0.0077472
	 0.086246,	-0.0090203
	 0.086293,	-0.010292
	 0.08631,	-0.011563
	 0.086296,	-0.01283
	 0.086252,	-0.014094
	 0.086177,	-0.015354
	 0.086073,	-0.016609
	 0.08594,	-0.017858
	 0.085777,	-0.019101
	 0.085585,	-0.020337
	 0.085364,	-0.021564
	 0.085115,	-0.022783
	 0.084838,	-0.023993
	 0.084533,	-0.025192
	 0.0842,	-0.026381
	 0.08384,	-0.027559
	 0.083454,	-0.028724
	 0.083041,	-0.029877
	 0.082602,	-0.031016
	 0.082137,	-0.032141
	 0.081647,	-0.033252
	 0.081133,	-0.034347
	 0.080594,	-0.035427
	 0.080031,	-0.036491
	 0.079445,	-0.037538
	 0.078837,	-0.038567
	 0.078205,	-0.039578
	 0.077552,	-0.040571
	 0.076878,	-0.041545
	 0.075466,	-0.043435
	 0.073976,	-0.045243
	 0.07241,	-0.046966
	 0.070775,	-0.048602
	 0.069073,	-0.050146
	 0.067311,	-0.051597
	 0.065492,	-0.052951
	 0.063622,	-0.054207
	 0.061706,	-0.055362
	 0.059748,	-0.056415
	 0.057754,	-0.057364
	 0.055729,	-0.058208
	 0.053678,	-0.058946
	 0.051607,	-0.059576
	 0.049519,	-0.060099
	 0.047421,	-0.060514
	 0.045318,	-0.06082
	 0.043215,	-0.061019
	 0.041117,	-0.06111
	 0.039029,	-0.061094
	 0.036956,	-0.060972
	 0.034903,	-0.060745
	 0.032876,	-0.060414
	 0.030878,	-0.059981
	 0.028915,	-0.059448
	 0.026992,	-0.058816
	 0.025112,	-0.058087
	 0.023281,	-0.057265
	 0.021502,	-0.056351
	 0.01978,	-0.055349
	 0.01812,	-0.054261
	 0.016524,	-0.053091
	 0.014997,	-0.051841
	 0.013542,	-0.050516
	 0.012163,	-0.049118
	 0.010863,	-0.047653
	 0.0098422,	-0.046382
	 0.0088801,	-0.04507
	 0.0079782,	-0.043717
	 0.0071381,	-0.042328
	 0.0063611,	-0.040903
	 0.0056486,	-0.039446
	 0.0050016,	-0.03796
	 0.0044213,	-0.036447
	 0.0039087,	-0.03491
	 0.0034646,	-0.033352
	 0.0030897,	-0.031775
	 0.0027848,	-0.030182
	 0.0025503,	-0.028577
	 0.0023866,	-0.026961
	 0.0022942,	-0.025339
	 0.002273,	-0.023712
	 0.0023234,	-0.022083
	 0.0024451,	-0.020456
	 0.0026381,	-0.018834
	 0.0029021,	-0.017218
	 0.0032368,	-0.015613
	 0.0036418,	-0.01402
	 0.0041164,	-0.012443
	 0.00466,	-0.010884
	 0.0052719,	-0.009346
	 0.0059512,	-0.0078318
	 0.0066971,	-0.0063438
	 0.0075086,	-0.0048847
	 0.0083846,	-0.003457
	 0.0093239,	-0.0020633
	 0.010325,	-0.0007059
	 0.011388,	 0.00061263
	 0.012281,	 0.0016379
	 0.013211,	 0.0026355
	 0.014179,	 0.0036043
	 0.015182,	 0.004543
	 0.01622,	 0.0054504
	 0.017294,	 0.0063254
	 0.0184,	 0.0071666
	 0.01954,	 0.0079728
	 0.020712,	 0.0087429
	 0.021915,	 0.0094754
	 0.023148,	 0.010169
	 0.02441,	 0.010823
	 0.025701,	 0.011435
	 0.027018,	 0.012005
	 0.028361,	 0.012531
	 0.029728,	 0.013011
	 0.031119,	 0.013445
	 0.032531,	 0.01383
	 0.033964,	 0.014166
	 0.035414,	 0.014452
	 0.036881,	 0.014686
	 0.038362,	 0.014867
	 0.039856,	 0.014993
	 0.04136,	 0.015065
	 0.042873,	 0.015081
	 0.04439,	 0.015041
	 0.045912,	 0.014943
	 0.047434,	 0.014788
	 0.048954,	 0.014574
	 0.05047,	 0.014303
	 0.051979,	 0.013973
	 0.053478,	 0.013586
	 0.054966,	 0.013141
	 0.056439,	 0.012639
	 0.057895,	 0.01208
	 0.059331,	 0.011466
	 0.060745,	 0.010796
	 0.062136,	 0.010073
	 0.063499,	 0.0092962
	 0.064834,	 0.0084682
	 0.066139,	 0.0075898
	 0.06741,	 0.0066624
	 0.068647,	 0.0056874
	 0.069848,	 0.0046663
	 0.07101,	 0.0036007
	 0.072132,	 0.0024923
	 0.073213,	 0.0013427
	 0.07425,	 0.00015373
	 0.075243,	-0.001073
	 0.076191,	-0.0023355
	 0.077091,	-0.0036321
	 0.077944,	-0.0049608
	 0.078746,	-0.0063197
	 0.079499,	-0.0077069
	 0.0802,	-0.0091204
	 0.08085,	-0.010558
	 0.081446,	-0.012018
	 0.081989,	-0.013499
	 0.082477,	-0.014997
	 0.082911,	-0.016512
	 0.083289,	-0.018041
	 0.083612,	-0.019582
	 0.083879,	-0.021133
	 0.084089,	-0.022692
	 0.084244,	-0.024257
	 0.084342,	-0.025825
	 0.084383,	-0.027395
	 0.084368,	-0.028964
	 0.084297,	-0.030531
	 0.08417,	-0.032093
	 0.083988,	-0.033649
	 0.08375,	-0.035196
	 0.083458,	-0.036732
	 0.083112,	-0.038256
	 0.082712,	-0.039766
	 0.082259,	-0.041258
	 0.081754,	-0.042733
	 0.081198,	-0.044188
	 0.080592,	-0.04562
	 0.079936,	-0.04703
	 0.079233,	-0.048413
	 0.078482,	-0.04977
	 0.077685,	-0.051099
	 0.076843,	-0.052398
	 0.075958,	-0.053665
	 0.07503,	-0.054899
	 0.074062,	-0.056099
	 0.073054,	-0.057263
	 0.072008,	-0.058391
	 0.070926,	-0.059481
	 0.069809,	-0.060532
	 0.068658,	-0.061543
	 0.067476,	-0.062513
	 0.066263,	-0.063441
	 0.065021,	-0.064327
	 0.063753,	-0.06517
	 0.062459,	-0.065968
	 0.061141,	-0.066722
	 0.059801,	-0.067431
	 0.058441,	-0.068094
	 0.057063,	-0.068711
	 0.055667,	-0.069282
	 0.054255,	-0.069807
	 0.052831,	-0.070285
END
BEGIN
	 0.97982,	-0.19232
	 0.97682,	-0.2065
	 0.97363,	-0.22064
	 0.97025,	-0.23472
	 0.96667,	-0.24876
	 0.96289,	-0.26273
	 0.95892,	-0.27665
	 0.95475,	-0.29051
	 0.95039,	-0.30431
	 0.94584,	-0.31804
	 0.94109,	-0.33171
	 0.93615,	-0.34531
	 0.93101,	-0.35883
	 0.92568,	-0.37228
	 0.92016,	-0.38566
	 0.91445,	-0.39895
	 0.90855,	-0.41216
	 0.90245,	-0.42529
	 0.89617,	-0.43832
	 0.88971,	-0.45127
	 0.88306,	-0.46412
	 0.87622,	-0.47687
	 0.8692,	-0.48953
	 0.86199,	-0.50208
	 0.85461,	-0.51452
	 0.84705,	-0.52686
	 0.8393,	-0.53909
	 0.83139,	-0.5512
	 0.82329,	-0.5632
	 0.81503,	-0.57508
	 0.80659,	-0.58684
	 0.79798,	-0.59848
	 0.78921,	-0.60999
	 0.78026,	-0.62137
	 0.77116,	-0.63262
	 0.76189,	-0.64374
	 0.75246,	-0.65472
	 0.74287,	-0.66556
	 0.73313,	-0.67626
	 0.72323,	-0.68682
	 0.71318,	-0.69723
	 0.70298,	-0.70749
	 0.69263,	-0.71761
	 0.68213,	-0.72757
	 0.67149,	-0.73738
	 0.66071,	-0.74703
	 0.6498,	-0.75652
	 0.63874,	-0.76585
	 0.62755,	-0.77502
	 0.61623,	-0.78402
	 0.60478,	-0.79286
	 0.5932,	-0.80153
	 0.5815,	-0.81003
	 0.56968,	-0.81835
	 0.55773,	-0.8265
	 0.54567,	-0.83448
	 0.5335,	-0.84228
	 0.52122,	-0.84989
	 0.50882,	-0.85733
	 0.49632,	-0.86459
	 0.48372,	-0.87166
	 0.47102,	-0.87854
	 0.45822,	-0.88524
	 0.44533,	-0.89175
	 0.43234,	-0.89807
	 0.41927,	-0.90419
	 0.4061,	-0.91013
	 0.39286,	-0.91587
	 0.37954,	-0.92142
	 0.36613,	-0.92677
	 0.35266,	-0.93192
	 0.33911,	-0.93688
	 0.32549,	-0.94163
	 0.31181,	-0.94619
	 0.29807,	-0.95054
	 0.28427,	-0.95469
	 0.27041,	-0.95864
	 0.25649,	-0.96239
	 0.24253,	-0.96593
	 0.22852,	-0.96927
	 0.21447,	-0.9724
	 0.20037,	-0.97533
	 0.18624,	-0.97805
	 0.17207,	-0.98056
	 0.15787,	-0.98286
	 0.14364,	-0.98496
	 0.12939,	-0.98685
	 0.11512,	-0.98853
	 0.10082,	-0.99
	 0.086514,	-0.99127
	 0.07219,	-0.99232
	 0.057856,	-0.99317
	 0.043515,	-0.9938
	 0.02917,	-0.99423
	 0.014825,	-0.99445
	 0.0004822,	-0.99446
	-0.013855,	-0.99427
	-0.028184,	-0.99386
	-0.042501,	-0.99325
	-0.056803,	-0.99242
	-0.071088,	-0.9914
	-0.085352,	-0.99016
	-0.099592,	-0.98872
	-0.1138,	-0.98707
	-0.12798,	-0.98522
	-0.14213,	-0.98316
	-0.15625,	-0.9809
	-0.17032,	-0.97843
	-0.18436,	-0.97576
	-0.19835,	-0.97289
	-0.21229,	-0.96982
	-0.22618,	-0.96655
	-0.24002,	-0.96308
	-0.2538,	-0.95941
	-0.26753,	-0.95554
	-0.28119,	-0.95147
	-0.29479,	-0.94722
	-0.30832,	-0.94276
	-0.32178,	-0.93812
	-0.33516,	-0.93328
	-0.34847,	-0.92825
	-0.37486,	-0.91762
	-0.40091,	-0.90625
	-0.42661,	-0.89414
	-0.45193,	-0.8813
	-0.47686,	-0.86775
	-0.50137,	-0.8535
	-0.52545,	-0.83856
	-0.54908,	-0.82295
	-0.57223,	-0.80668
	-0.5949,	-0.78976
	-0.61706,	-0.77222
	-0.6387,	-0.75405
	-0.6598,	-0.73529
	-0.68035,	-0.71595
	-0.70033,	-0.69603
	-0.71972,	-0.67557
	-0.73852,	-0.65457
	-0.7567,	-0.63306
	-0.77425,	-0.61105
	-0.79117,	-0.58855
	-0.80743,	-0.5656
	-0.82303,	-0.5422
	-0.83796,	-0.51838
	-0.8522,	-0.49415
	-0.86574,	-0.46954
	-0.87858,	-0.44456
	-0.8907,	-0.41923
	-0.9021,	-0.39358
	-0.91277,	-0.36761
	-0.92269,	-0.34137
	-0.93187,	-0.31485
	-0.94029,	-0.28809
	-0.94795,	-0.2611
	-0.95485,	-0.23392
	-0.96097,	-0.20654
	-0.96632,	-0.17901
	-0.97017,	-0.15596
	-0.97349,	-0.13282
	-0.97625,	-0.10961
	-0.97847,	-0.086349
	-0.98014,	-0.063033
	-0.98125,	-0.039683
	-0.98182,	-0.016311
	-0.98183,	 0.0070703
	-0.98129,	 0.030447
	-0.9802,	 0.053808
	-0.97855,	 0.077139
	-0.97635,	 0.10042
	-0.9736,	 0.12365
	-0.9703,	 0.14682
	-0.96645,	 0.1699
	-0.96205,	 0.19289
	-0.9571,	 0.21577
	-0.95161,	 0.23853
	-0.94558,	 0.26116
	-0.93901,	 0.28364
	-0.93191,	 0.30596
	-0.92427,	 0.32811
	-0.91611,	 0.35007
	-0.90742,	 0.37184
	-0.89821,	 0.39339
	-0.88849,	 0.41472
	-0.87826,	 0.43581
	-0.86753,	 0.45665
	-0.85629,	 0.47723
	-0.84457,	 0.49753
	-0.83236,	 0.51755
	-0.81968,	 0.53726
	-0.80919,	 0.55281
	-0.79841,	 0.56816
	-0.78734,	 0.58329
	-0.77597,	 0.59821
	-0.76433,	 0.6129
	-0.7524,	 0.62736
	-0.7402,	 0.64159
	-0.72774,	 0.65558
	-0.715,	 0.66933
	-0.70201,	 0.68283
	-0.68877,	 0.69607
	-0.67528,	 0.70905
	-0.66154,	 0.72177
	-0.64757,	 0.73422
	-0.63336,	 0.7464
	-0.61893,	 0.7583
	-0.60428,	 0.76992
	-0.58942,	 0.78126
	-0.57434,	 0.7923
	-0.55907,	 0.80306
	-0.54359,	 0.81352
	-0.52792,	 0.82368
	-0.51207,	 0.83354
	-0.49604,	 0.8431
	-0.47983,	 0.85234
	-0.46345,	 0.86128
	-0.44691,	 0.8699
	-0.43021,	 0.87821
	-0.41336,	 0.88619
	-0.39637,	 0.89386
	-0.37924,	 0.9012
	-0.36197,	 0.90821
	-0.34458,	 0.91489
	-0.32706,	 0.92124
	-0.30943,	 0.92726
	-0.29169,	 0.93293
	-0.27385,	 0.93827
	-0.25591,	 0.94327
	-0.23788,	 0.94792
	-0.21977,	 0.95223
	-0.20158,	 0.95619
	-0.18333,	 0.95981
	-0.16501,	 0.96307
	-0.14663,	 0.96598
	-0.1282,	 0.96854
	-0.10974,	 0.97075
	-0.091238,	 0.9726
	-0.072706,	 0.9741
	-0.054154,	 0.97524
	-0.035587,	 0.97602
	-0.017014,	 0.97644
	 0.0015589,	 0.97651
	 0.020124,	 0.97623
	 0.038675,	 0.97558
	 0.057203,	 0.97458
	 0.075702,	 0.97322
	 0.094165,	 0.97151
	 0.11258,	 0.96945
	 0.13095,	 0.96703
	 0.14926,	 0.96426
	 0.1675,	 0.96114
	 0.18567,	 0.95767
	 0.20377,	 0.95385
	 0.22177,	 0.94969
	 0.23969,	 0.94518
	 0.2575,	 0.94033
	 0.27521,	 0.93515
	 0.2928,	 0.92962
	 0.31027,	 0.92377
	 0.32762,	 0.91758
	 0.34483,	 0.91107
	 0.3619,	 0.90423
	 0.37882,	 0.89707
	 0.39559,	 0.88959
	 0.4122,	 0.8818
	 0.42865,	 0.87369
	 0.44492,	 0.86528
	 0.46102,	 0.85657
	 0.47693,	 0.84755
	 0.49265,	 0.83825
	 0.50818,	 0.82865
	 0.52351,	 0.81876
	 0.53863,	 0.80859
	 0.55354,	 0.79815
	 0.56824,	 0.78743
	 0.58271,	 0.77645
	 0.59695,	 0.7652
	 0.61097,	 0.7537
	 0.62475,	 0.74194
	 0.63828,	 0.72993
	 0.65158,	 0.71769
	 0.66462,	 0.7052
	 0.67741,	 0.69249
	 0.68993,	 0.67954
	 0.7022,	 0.66638
	 0.7142,	 0.65301
	 0.72594,	 0.63942
	 0.73739,	 0.62563
	 0.74857,	 0.61165
	 0.75948,	 0.59747
	 0.77009,	 0.5831
	 0.78042,	 0.56856
	 0.79047,	 0.55385
	 0.80021,	 0.53896
END
BEGIN
	 0.97982,	-0.19232
	 0.97682,	-0.2065
	 0.97363,	-0.22064
	 0.97025,	-0.23472
	 0.96667,	-0.24876
	 0.96289,	-0.26273
	 0.95892,	-0.27665
	 0.95475,	-0.29051
	 0.95039,	-0.30431
	 0.94584,	-0.31804
	 0.94109,	-0.33171
	 0.93615,	-0.34531
	 0.93101,	-0.35883
	 0.92568,	-0.37228
	 0.92016,	-0.38566
	 0.91445,	-0.39895
	 0.90855,	-0.41216
	 0.90245,	-0.42529
	 0.89617,	-0.43832
	 0.88971,	-0.45127
	 0.88306,	-0.46412
	 0.87622,	-0.47687
	 0.8692,	-0.48953
	 0.86199,	-0.50208
	 0.85461,	-0.51452
	 0.84705,	-0.52686
	 0.8393,	-0.53909
	 0.83139,	-0.5512
	 0.82329,	-0.5632
	 0.81503,	-0.57508
	 0.80659,	-0.58684
	 0.79798,	-0.59848
	 0.78921,	-0.60999
	 0.78026,	-0.62137
	 0.77116,	-0.63262
	 0.76189,	-0.64374
	 0.75246,	-0.65472
	 0.74287,	-0.66556
	 0.73313,	-0.67626
	 0.72323,	-0.68682
	 0.71318,	-0.69723
	 0.70298,	-0.70749
	 0.69263,	-0.71761
	 0.68213,	-0.72757
	 0.67149,	-0.73738
	 0.66071,	-0.74703
	 0.6498,	-0.75652
	 0.63874,	-0.76585
	 0.62755,	-0.77502
	 0.61623,	-0.78402
	 0.60478,	-0.79286
	 0.5932,	-0.80153
	 0.5815,	-0.81003
	 0.56968,	-0.81835
	 0.55773,	-0.8265
	 0.54567,	-0.83448
	 0.5335,	-0.84228
	 0.52122,	-0.84989
	 0.50882,	-0.85733
	 0.49632,	-0.86459
	 0.48372,	-0.87166
	 0.47102,	-0.87854
	 0.45822,	-0.88524
	 0.44533,	-0.89175
	 0.43234,	-0.89807
	 0.41927,	-0.90419
	 0.4061,	-0.91013
	 0.39286,	-0.91587
	 0.37954,	-0.92142
	 0.36613,	-0.92677
	 0.35266,	-0.93192
	 0.33911,	-0.93688
	 0.32549,	-0.94163
	 0.31181,	-0.94619
	 0.29807,	-0.95054
	 0.28427,	-0.95469
	 0.27041,	-0.95864
	 0.25649,	-0.96239
	 0.24253,	-0.96593
	 0.22852,	-0.96927
	 0.21447,	-0.9724
	 0.20037,	-0.97533
	 0.18624,	-0.97805
	 0.17207,	-0.98056
	 0.15787,	-0.98286
	 0.14364,	-0.98496
	 0.12939,	-0.98685
	 0.11512,	-0.98853
	 0.10082,	-0.99
	 0.086514,	-0.99127
	 0.07219,	-0.99232
	 0.057856,	-0.99317
	 0.043515,	-0.9938
	 0.02917,	-0.99423
	 0.014825,	-0.99445
	 0.0004822,	-0.99446
	-0.013855,	-0.99427
	-0.028184,	-0.99386
	-0.042501,	-0.99325
	-0.056803,	-0.99242
	-0.071088,	-0.9914
	-0.085352,	-0.99016
	-0.099592,	-0.98872
	-0.1138,	-0.98707
	-0.12798,	-0.98522
	-0.14213,	-0.98316
	-0.15625,	-0.9809
	-0.17032,	-0.97843
	-0.18436,	-0.97576
	-0.19835,	-0.97289
	-0.21229,	-0.96982
	-0.22618,	-0.96655
	-0.24002,	-0.96308
	-0.2538,	-0.95941
	-0.26753,	-0.95554
	-0.28119,	-0.95147
	-0.29479,	-0.94722
	-0.30832,	-0.94276
	-0.32178,	-0.93812
	-0.33516,	-0.93328
	-0.34847,	-0.92825
	-0.37486,	-0.91762
	-0.40091,	-0.90625
	-0.42661,	-0.89414
	-0.45193,	-0.8813
	-0.47686,	-0.86775
	-0.50137,	-0.8535
	-0.52545,	-0.83856
	-0.54908,	-0.82295
	-0.57223,	-0.80668
	-0.5949,	-0.78976
	-0.61706,	-0.77222
	-0.6387,	-0.75405
	-0.6598,	-0.73529
	-0.68035,	-0.71595
	-0.70033,	-0.69603
	-0.71972,	-0.67557
	-0.73852,	-0.65457
	-0.7567,	-0.63306
	-0.77425,	-0.61105
	-0.79117,	-0.58855
	-0.80743,	-0.5656
	-0.82303,	-0.5422
	-0.83796,	-0.51838
	-0.8522,	-0.49415
	-0.86574,	-0.46954
	-0.87858,	-0.44456
	-0.8907,	-0.41923
	-0.9021,	-0.39358
	-0.91277,	-0.36761
	-0.92269,	-0.34137
	-0.93187,	-0.31485
	-0.94029,	-0.28809
	-0.94795,	-0.2611
	-0.95485,	-0.23392
	-0.96097,	-0.20654
	-0.96632,	-0.17901
	-0.97017,	-0.15596
	-0.97349,	-0.13282
	-0.97625,	-0.10961
	-0.97847,	-0.086349
	-0.98014,	-0.063033
