CITIFILE A.01.01
#Momentum: B.09.00.103 (*) 370.600 Mar  9 2011 
#Momentum Date and Time: Wed Oct 10 16:39:44 2012

NAME Momentum.SP

#  mode: MW    project: proj    reference: S_50

CONSTANT NBR_OF_PORTS 2

CONSTANT NORMALIZATION 1

VAR freq MAG 20

DATA S[1,1] RI
DATA S[1,2] RI
DATA S[2,1] RI
DATA S[2,2] RI
DATA S_50[1,1] RI
DATA S_50[1,2] RI
DATA S_50[2,1] RI
DATA S_50[2,2] RI
DATA S_Z0[1,1] RI
DATA S_Z0[1,2] RI
DATA S_Z0[2,1] RI
DATA S_Z0[2,2] RI
DATA Z0[1] RI
DATA Z0[2] RI
DATA PORTZ[1] RI
DATA PORTZ[2] RI

VAR_LIST_BEGIN
	 100000000
	 133564814.8
	 301388889
	 341666666.8
	 583333333.5
	 744444444.7
	 1012962963
	 1066666667
	 1388888889
	 1442592593
	 1550000000
	 1711111111
	 2033333333
	 2516666667
	 2758333334
	 2838888889
	 2856790124
	 2892592593
	 2946296297
	 3000000000
VAR_LIST_END

BEGIN
	 0.00608664885,	-0.188800271
	-0.00118438897,	-0.110908263
	 0.032157568,	 0.0379048932
	 0.0444008182,	 0.05488787
	 0.145390699,	 0.0902724048
	 0.216944869,	 0.0477945479
	 0.260075165,	-0.104061002
	 0.253214186,	-0.137941916
	 0.119537819,	-0.295997087
	 0.0918723757,	-0.316716844
	 0.0127405476,	-0.335530628
	-0.102633399,	-0.32945325
	-0.30896837,	-0.213610099
	-0.451025137,	 0.178816153
	-0.342963425,	 0.519585105
	-0.0208599036,	 0.726709358
	 0.201940662,	 0.661025601
	 0.0892142252,	 0.153641172
	-0.152106407,	 0.305126302
	-0.145184108,	 0.3968893
END
BEGIN
	 0.978239378,	 0.0218858601
	 0.972830665,	-0.109137084
	 0.83221375,	-0.502036074
	 0.785059012,	-0.572194595
	 0.408676937,	-0.879769894
	 0.0950571589,	-0.958494681
	-0.411030953,	-0.85038262
	-0.498269393,	-0.798403338
	-0.863255937,	-0.335555923
	-0.886771496,	-0.247056748
	-0.922276854,	-0.0536660436
	-0.888866281,	 0.239788709
	-0.555156543,	 0.719816335
	 0.296064212,	 0.806946457
	 0.605529656,	 0.440531367
	 0.41643702,	 0.180514153
	 0.218773026,	 0.227497669
	 0.368701192,	 0.71270703
	 0.691243351,	 0.524365435
	 0.758754461,	 0.381416784
END
BEGIN
	 0.978239338,	 0.0218858552
	 0.972830632,	-0.109137085
	 0.832213736,	-0.502036081
	 0.785058998,	-0.572194605
	 0.408676899,	-0.879769902
	 0.0950571024,	-0.958494674
	-0.411031069,	-0.850382548
	-0.498269535,	-0.798403224
	-0.863255556,	-0.335556084
	-0.886771417,	-0.247057288
	-0.922276972,	-0.053666227
	-0.888866446,	 0.239788652
	-0.555156708,	 0.719816518
	 0.296065673,	 0.806945976
	 0.605529343,	 0.440530854
	 0.416436488,	 0.180514131
	 0.218772622,	 0.227497887
	 0.368701262,	 0.712707066
	 0.691243317,	 0.524365326
	 0.75875441,	 0.381416665
END
BEGIN
	 0.00646257225,	-0.188791171
	-0.000946873381,	-0.110917349
	 0.0318513644,	 0.0382604149
	 0.0440112528,	 0.0553888699
	 0.144916411,	 0.0920031947
	 0.21695887,	 0.0506395598
	 0.262570455,	-0.0993743761
	 0.256506875,	-0.133025105
	 0.129106615,	-0.292320513
	 0.102786228,	-0.313631911
	 0.0258706059,	-0.334933387
	-0.0872046953,	-0.333836491
	-0.295519792,	-0.231485981
	-0.462331435,	 0.148244389
	-0.3762922,	 0.496039883
	-0.0672701362,	 0.722679744
	 0.159331922,	 0.670905299
	 0.0783318386,	 0.156615586
	-0.173188011,	 0.292924989
	-0.172375711,	 0.385582691
END
BEGIN
	 0.00608664885,	-0.188800271
	-0.00118438897,	-0.110908263
	 0.032157568,	 0.0379048932
	 0.0444008182,	 0.05488787
	 0.145390699,	 0.0902724048
	 0.216944869,	 0.0477945479
	 0.260075165,	-0.104061002
	 0.253214186,	-0.137941916
	 0.119537819,	-0.295997087
	 0.0918723757,	-0.316716844
	 0.0127405476,	-0.335530628
	-0.102633399,	-0.32945325
	-0.30896837,	-0.213610099
	-0.451025137,	 0.178816153
	-0.342963425,	 0.519585105
	-0.0208599036,	 0.726709358
	 0.201940662,	 0.661025601
	 0.0892142252,	 0.153641172
	-0.152106407,	 0.305126302
	-0.145184108,	 0.3968893
END
BEGIN
	 0.978239378,	 0.0218858601
	 0.972830665,	-0.109137084
	 0.83221375,	-0.502036074
	 0.785059012,	-0.572194595
	 0.408676937,	-0.879769894
	 0.0950571589,	-0.958494681
	-0.411030953,	-0.85038262
	-0.498269393,	-0.798403338
	-0.863255937,	-0.335555923
	-0.886771496,	-0.247056748
	-0.922276854,	-0.0536660436
	-0.888866281,	 0.239788709
	-0.555156543,	 0.719816335
	 0.296064212,	 0.806946457
	 0.605529656,	 0.440531367
	 0.41643702,	 0.180514153
	 0.218773026,	 0.227497669
	 0.368701192,	 0.71270703
	 0.691243351,	 0.524365435
	 0.758754461,	 0.381416784
END
BEGIN
	 0.978239338,	 0.0218858552
	 0.972830632,	-0.109137085
	 0.832213736,	-0.502036081
	 0.785058998,	-0.572194605
	 0.408676899,	-0.879769902
	 0.0950571024,	-0.958494674
	-0.411031069,	-0.850382548
	-0.498269535,	-0.798403224
	-0.863255556,	-0.335556084
	-0.886771417,	-0.247057288
	-0.922276972,	-0.053666227
	-0.888866446,	 0.239788652
	-0.555156708,	 0.719816518
	 0.296065673,	 0.806945976
	 0.605529343,	 0.440530854
	 0.416436488,	 0.180514131
	 0.218772622,	 0.227497887
	 0.368701262,	 0.712707066
	 0.691243317,	 0.524365326
	 0.75875441,	 0.381416665
END
BEGIN
	 0.00646257225,	-0.188791171
	-0.000946873381,	-0.110917349
	 0.0318513644,	 0.0382604149
	 0.0440112528,	 0.0553888699
	 0.144916411,	 0.0920031947
	 0.21695887,	 0.0506395598
	 0.262570455,	-0.0993743761
	 0.256506875,	-0.133025105
	 0.129106615,	-0.292320513
	 0.102786228,	-0.313631911
	 0.0258706059,	-0.334933387
	-0.0872046953,	-0.333836491
	-0.295519792,	-0.231485981
	-0.462331435,	 0.148244389
	-0.3762922,	 0.496039883
	-0.0672701362,	 0.722679744
	 0.159331922,	 0.670905299
	 0.0783318386,	 0.156615586
	-0.173188011,	 0.292924989
	-0.172375711,	 0.385582691
END
BEGIN
	 0.00608664885,	-0.188800271
	-0.00118438897,	-0.110908263
	 0.032157568,	 0.0379048932
	 0.0444008182,	 0.05488787
	 0.145390699,	 0.0902724048
	 0.216944869,	 0.0477945479
	 0.260075165,	-0.104061002
	 0.253214186,	-0.137941916
	 0.119537819,	-0.295997087
	 0.0918723757,	-0.316716844
	 0.0127405476,	-0.335530628
	-0.102633399,	-0.32945325
	-0.30896837,	-0.213610099
	-0.451025137,	 0.178816153
	-0.342963425,	 0.519585105
	-0.0208599036,	 0.726709358
	 0.201940662,	 0.661025601
	 0.0892142252,	 0.153641172
	-0.152106407,	 0.305126302
	-0.145184108,	 0.3968893
END
BEGIN
	 0.978239378,	 0.0218858601
	 0.972830665,	-0.109137084
	 0.83221375,	-0.502036074
	 0.785059012,	-0.572194595
	 0.408676937,	-0.879769894
	 0.0950571589,	-0.958494681
	-0.411030953,	-0.85038262
	-0.498269393,	-0.798403338
	-0.863255937,	-0.335555923
	-0.886771496,	-0.247056748
	-0.922276854,	-0.0536660436
	-0.888866281,	 0.239788709
	-0.555156543,	 0.719816335
	 0.296064212,	 0.806946457
	 0.605529656,	 0.440531367
	 0.41643702,	 0.180514153
	 0.218773026,	 0.227497669
	 0.368701192,	 0.71270703
	 0.691243351,	 0.524365435
	 0.758754461,	 0.381416784
END
BEGIN
	 0.978239338,	 0.0218858552
	 0.972830632,	-0.109137085
	 0.832213736,	-0.502036081
	 0.785058998,	-0.572194605
	 0.408676899,	-0.879769902
	 0.0950571024,	-0.958494674
	-0.411031069,	-0.850382548
	-0.498269535,	-0.798403224
	-0.863255556,	-0.335556084
	-0.886771417,	-0.247057288
	-0.922276972,	-0.053666227
	-0.888866446,	 0.239788652
	-0.555156708,	 0.719816518
	 0.296065673,	 0.806945976
	 0.605529343,	 0.440530854
	 0.416436488,	 0.180514131
	 0.218772622,	 0.227497887
	 0.368701262,	 0.712707066
	 0.691243317,	 0.524365326
	 0.75875441,	 0.381416665
END
BEGIN
	 0.00646257225,	-0.188791171
	-0.000946873381,	-0.110917349
	 0.0318513644,	 0.0382604149
	 0.0440112528,	 0.0553888699
	 0.144916411,	 0.0920031947
	 0.21695887,	 0.0506395598
	 0.262570455,	-0.0993743761
	 0.256506875,	-0.133025105
	 0.129106615,	-0.292320513
	 0.102786228,	-0.313631911
	 0.0258706059,	-0.334933387
	-0.0872046953,	-0.333836491
	-0.295519792,	-0.231485981
	-0.462331435,	 0.148244389
	-0.3762922,	 0.496039883
	-0.0672701362,	 0.722679744
	 0.159331922,	 0.670905299
	 0.0783318386,	 0.156615586
	-0.173188011,	 0.292924989
	-0.172375711,	 0.385582691
END
BEGIN
	 50 ,	 0 
	 50 ,	 0 
	 50 ,	 0 
	 50 ,	 0 
	 50 ,	 0 
	 50 ,	 0 
	 50 ,	 0 
	 50 ,	 0 
	 50 ,	 0 
	 50 ,	 0 
	 50 ,	 0 
	 50 ,	 0 
	 50 ,	 0 
	 50 ,	 0 
	 50 ,	 0 
	 50 ,	 0 
	 50 ,	 0 
	 50 ,	 0 
	 50 ,	 0 
	 50 ,	 0 
END
BEGIN
	 50 ,	 0 
	 50 ,	 0 
	 50 ,	 0 
	 50 ,	 0 
	 50 ,	 0 
	 50 ,	 0 
	 50 ,	 0 
	 50 ,	 0 
	 50 ,	 0 
	 50 ,	 0 
	 50 ,	 0 
	 50 ,	 0 
	 50 ,	 0 
	 50 ,	 0 
	 50 ,	 0 
	 50 ,	 0 
	 50 ,	 0 
	 50 ,	 0 
	 50 ,	 0 
	 50 ,	 0 
END
BEGIN
	 50 ,	 0 
	 50 ,	 0 
	 50 ,	 0 
	 50 ,	 0 
	 50 ,	 0 
	 50 ,	 0 
	 50 ,	 0 
	 50 ,	 0 
	 50 ,	 0 
	 50 ,	 0 
	 50 ,	 0 
	 50 ,	 0 
	 50 ,	 0 
	 50 ,	 0 
	 50 ,	 0 
	 50 ,	 0 
	 50 ,	 0 
	 50 ,	 0 
	 50 ,	 0 
	 50 ,	 0 
END
BEGIN
	 50 ,	 0 
	 50 ,	 0 
	 50 ,	 0 
	 50 ,	 0 
	 50 ,	 0 
	 50 ,	 0 
	 50 ,	 0 
	 50 ,	 0 
	 50 ,	 0 
	 50 ,	 0 
	 50 ,	 0 
	 50 ,	 0 
	 50 ,	 0 
	 50 ,	 0 
	 50 ,	 0 
	 50 ,	 0 
	 50 ,	 0 
	 50 ,	 0 
	 50 ,	 0 
	 50 ,	 0 
END
